;$FILEVERSION=1.1
;$STARTTIME=45188.7971973958
;
;   Start time: 19/09/2023 19:07:57.855.0
;   Generated by PCAN-View v5.0.2.838
;
;   Message Number
;   |         Time Offset (ms)
;   |         |        Type
;   |         |        |        ID (hex)
;   |         |        |        |     Data Length
;   |         |        |        |     |   Data Bytes (hex) ...
;   |         |        |        |     |   |
;---+--   ----+----  --+--  ----+---  +  -+ -- -- -- -- -- -- --
     1)     11054.8  Rx         0700  8  02 10 01 00 00 00 00 00 
     2)     11059.7  Rx         0708  8  06 50 01 00 32 01 F4 00 
     3)     11060.9  Rx         0700  8  03 22 F1 81 00 00 00 00 
     4)     11063.8  Rx         0708  8  10 24 62 F1 81 02 38 39 
     5)     11064.3  Rx         0700  8  30 00 00 00 00 00 00 00 
     6)     11068.5  Rx         0708  8  21 36 36 33 36 41 35 32 
     7)     11071.7  Rx         0708  8  22 31 30 30 00 00 00 00 
     8)     11075.7  Rx         0708  8  23 38 39 36 36 35 36 30 
     9)     11078.9  Rx         0708  8  24 41 34 30 30 30 00 00 
    10)     11082.2  Rx         0708  8  25 00 00 00 00 00 00 00 
    11)     11084.7  Rx         0700  8  02 10 03 00 00 00 00 00 
    12)     11088.5  Rx         0708  8  06 50 03 00 32 01 F4 00 
    13)     11096.7  Rx         0700  8  10 08 23 15 01 00 00 00 
    14)     11098.8  Rx         0708  8  30 00 00 00 00 00 00 00 
    15)     11099.3  Rx         0700  8  21 00 80 00 00 00 00 00 
    16)     11105.4  Rx         0708  8  10 81 63 88 09 00 00 00 
    17)     11105.7  Rx         0700  8  30 00 00 00 00 00 00 00 
    18)     11108.8  Rx         0708  8  21 01 01 10 FE FF FF 1F 
    19)     11112.4  Rx         0708  8  22 FF FF FF 1F AC 35 53 
    20)     11115.2  Rx         0708  8  23 CA A5 5A 5A A5 A5 5A 
    21)     11118.2  Rx         0708  8  24 5A A5 3C 0D 00 00 50 
    22)     11121.7  Rx         0708  8  25 42 4C 5F 52 48 5F 36 
    23)     11124.2  Rx         0708  8  26 34 35 42 5F 45 4E 47 
    24)     11127.2  Rx         0708  8  27 5F 4D 20 56 65 72 31 
    25)     11130.5  Rx         0708  8  28 2E 30 30 72 31 00 00 
    26)     11133.4  Rx         0708  8  29 00 00 00 6D 50 42 4C 
    27)     11136.7  Rx         0708  8  2A 5F 54 4D 43 20 56 65 
    28)     11139.5  Rx         0708  8  2B 72 31 2E 31 30 72 31 
    29)     11142.6  Rx         0708  8  2C 00 00 00 00 00 00 00 
    30)     11145.7  Rx         0708  8  2D 00 00 00 00 00 00 00 
    31)     11149.0  Rx         0708  8  2E FF FF FF FF FF FF FF 
    32)     11152.0  Rx         0708  8  2F FF FF FF FF FF FF FF 
    33)     11155.3  Rx         0708  8  20 FF FF FF FF FF FF FF 
    34)     11158.2  Rx         0708  8  21 FF FF FF FF FF FF FF 
    35)     11161.2  Rx         0708  8  22 FF FF FF FF 00 00 00 
    36)     11164.7  Rx         0700  8  10 08 23 15 01 00 00 00 
    37)     11166.7  Rx         0708  8  30 00 00 00 00 00 00 00 
    38)     11167.3  Rx         0700  8  21 80 80 00 00 00 00 00 
    39)     11170.6  Rx         0708  8  10 81 63 FF FF FF FF FF 
    40)     11170.9  Rx         0700  8  30 00 00 00 00 00 00 00 
    41)     11173.5  Rx         0708  8  21 FF FF FF FF FF FF FF 
    42)     11176.3  Rx         0708  8  22 FF FF FF FF FF FF FF 
    43)     11179.4  Rx         0708  8  23 FF FF FF FF FF FF FF 
    44)     11182.8  Rx         0708  8  24 FF FF FF FF FF FF FF 
    45)     11185.8  Rx         0708  8  25 FF FF FF FF FF FF FF 
    46)     11188.9  Rx         0708  8  26 FF FF FF FF FF FF FF 
    47)     11191.7  Rx         0708  8  27 FF FF FF FF FF FF FF 
    48)     11195.4  Rx         0708  8  28 FF FF FF FF FF FF FF 
    49)     11198.4  Rx         0708  8  29 FF FF FF FF FF FF FF 
    50)     11201.0  Rx         0708  8  2A FF FF FF FF FF FF FF 
    51)     11204.6  Rx         0708  8  2B FF FF FF FF FF FF FF 
    52)     11207.2  Rx         0708  8  2C FF FF FF FF FF FF FF 
    53)     11210.2  Rx         0708  8  2D FF FF FF FF FF FF FF 
    54)     11213.2  Rx         0708  8  2E FF FF FF FF FF FF FF 
    55)     11216.5  Rx         0708  8  2F FF FF FF FF FF FF FF 
    56)     11219.4  Rx         0708  8  20 FF FF FF FF FF FF FF 
    57)     11222.7  Rx         0708  8  21 FF FF FF FF FF FF FF 
    58)     11225.8  Rx         0708  8  22 FF FF FF FF 00 00 00 
    59)     11228.2  Rx         0700  8  10 08 23 15 01 00 00 01 
    60)     11229.8  Rx         0708  8  30 00 00 00 00 00 00 00 
    61)     11230.6  Rx         0700  8  21 00 80 00 00 00 00 00 
    62)     11236.2  Rx         0708  8  10 81 63 FF FF FF FF FF 
    63)     11236.5  Rx         0700  8  30 00 00 00 00 00 00 00 
    64)     11239.9  Rx         0708  8  21 FF FF FF FF FF FF FF 
    65)     11243.0  Rx         0708  8  22 FF FF FF FF FF FF FF 
    66)     11246.7  Rx         0708  8  23 FF FF FF FF FF FF FF 
    67)     11249.2  Rx         0708  8  24 FF FF FF FF FF FF FF 
    68)     11252.2  Rx         0708  8  25 FF FF FF FF FF FF FF 
    69)     11255.2  Rx         0708  8  26 FF FF FF FF FF FF FF 
    70)     11258.3  Rx         0708  8  27 FF FF FF FF FF FF FF 
    71)     11261.9  Rx         0708  8  28 FF FF FF FF FF FF FF 
    72)     11265.0  Rx         0708  8  29 FF FF FF FF FF FF FF 
    73)     11267.6  Rx         0708  8  2A FF FF FF FF FF FF FF 
    74)     11270.6  Rx         0708  8  2B FF FF FF FF FF FF FF 
    75)     11273.6  Rx         0708  8  2C FF FF FF FF FF FF FF 
    76)     11277.2  Rx         0708  8  2D FF FF FF FF FF FF FF 
    77)     11280.3  Rx         0708  8  2E FF FF FF FF FF FF FF 
    78)     11283.1  Rx         0708  8  2F FF FF FF FF FF FF FF 
    79)     11286.6  Rx         0708  8  20 FF FF FF FF FF FF FF 
    80)     11289.5  Rx         0708  8  21 FF FF FF FF FF FF FF 
    81)     11292.1  Rx         0708  8  22 FF FF FF FF 00 00 00 
    82)     11295.5  Rx         0700  8  10 08 23 15 01 00 00 01 
    83)     11297.2  Rx         0708  8  30 00 00 00 00 00 00 00 
    84)     11297.5  Rx         0700  8  21 80 80 00 00 00 00 00 
    85)     11301.3  Rx         0708  8  10 81 63 FF FF FF FF FF 
    86)     11301.6  Rx         0700  8  30 00 00 00 00 00 00 00 
    87)     11304.4  Rx         0708  8  21 FF FF FF FF FF FF FF 
    88)     11307.7  Rx         0708  8  22 FF FF FF FF FF FF FF 
    89)     11310.5  Rx         0708  8  23 FF FF FF FF FF FF FF 
    90)     11313.6  Rx         0708  8  24 FF FF FF FF FF FF FF 
    91)     11317.0  Rx         0708  8  25 FF FF FF FF FF FF FF 
    92)     11319.7  Rx         0708  8  26 FF FF FF FF FF FF FF 
    93)     11322.8  Rx         0708  8  27 FF FF FF FF FF FF FF 
    94)     11325.9  Rx         0708  8  28 FF FF FF FF FF FF FF 
    95)     11329.2  Rx         0708  8  29 FF FF FF FF FF FF FF 
    96)     11332.2  Rx         0708  8  2A FF FF FF FF FF FF FF 
    97)     11335.8  Rx         0708  8  2B FF FF FF FF FF FF FF 
    98)     11339.5  Rx         0708  8  2C FF FF FF FF FF FF FF 
    99)     11342.4  Rx         0708  8  2D FF FF FF FF FF FF FF 
   100)     11345.3  Rx         0708  8  2E FF FF FF FF FF FF FF 
   101)     11348.4  Rx         0708  8  2F FF FF FF FF FF FF FF 
   102)     11351.6  Rx         0708  8  20 FF FF FF FF FF FF FF 
   103)     11354.6  Rx         0708  8  21 FF FF FF FF FF FF FF 
   104)     11357.6  Rx         0708  8  22 FF FF FF FF 00 00 00 
   105)     11364.5  Rx         0700  8  10 08 23 15 01 00 00 02 
   106)     11365.9  Rx         0708  8  30 00 00 00 00 00 00 00 
   107)     11366.3  Rx         0700  8  21 00 80 00 00 00 00 00 
   108)     11371.7  Rx         0708  8  10 81 63 1F 00 00 00 E0 
   109)     11372.1  Rx         0700  8  30 00 00 00 00 00 00 00 
   110)     11375.4  Rx         0708  8  21 02 3C 01 00 00 00 00 
   111)     11378.2  Rx         0708  8  22 00 00 E5 FD 1F 00 00 
   112)     11381.2  Rx         0708  8  23 00 E0 02 20 01 00 00 
   113)     11384.9  Rx         0708  8  24 00 00 00 00 E5 FD 1F 
   114)     11387.6  Rx         0708  8  25 00 00 00 E0 02 1C 01 
   115)     11390.7  Rx         0708  8  26 00 00 00 00 00 00 E5 
   116)     11393.5  Rx         0708  8  27 FD 1F 00 00 00 E0 02 
   117)     11396.5  Rx         0708  8  28 00 01 00 00 00 00 00 
   118)     11399.6  Rx         0708  8  29 00 E5 FD 1F 00 00 00 
   119)     11402.9  Rx         0708  8  2A E0 02 F0 00 00 00 00 
   120)     11406.0  Rx         0708  8  2B 00 00 00 E5 FD 1F 00 
   121)     11408.8  Rx         0708  8  2C 00 00 E0 02 E0 00 00 
   122)     11411.9  Rx         0708  8  2D 00 00 00 00 00 E5 FD 
   123)     11415.1  Rx         0708  8  2E 1F 00 00 00 E0 02 D0 
   124)     11418.3  Rx         0708  8  2F 00 00 00 00 00 00 00 
   125)     11421.2  Rx         0708  8  20 E5 FD 1F 00 00 00 E0 
   126)     11424.9  Rx         0708  8  21 02 C0 00 00 00 00 00 
   127)     11428.4  Rx         0708  8  22 00 00 E5 FD 00 00 00 
   128)     11431.4  Rx         0700  8  10 08 23 15 01 00 00 02 
   129)     11433.5  Rx         0708  8  30 00 00 00 00 00 00 00 
   130)     11433.8  Rx         0700  8  21 80 80 00 00 00 00 00 
   131)     11437.5  Rx         0708  8  10 81 63 1F 00 00 00 E0 
   132)     11437.8  Rx         0700  8  30 00 00 00 00 00 00 00 
   133)     11440.6  Rx         0708  8  21 02 B0 00 00 00 00 00 
   134)     11443.6  Rx         0708  8  22 00 00 E5 FD 1F 00 00 
   135)     11446.7  Rx         0708  8  23 00 E0 02 A0 00 00 00 
   136)     11449.9  Rx         0708  8  24 00 00 00 00 E5 FD 1F 
   137)     11453.1  Rx         0708  8  25 00 00 00 E0 02 90 00 
   138)     11456.1  Rx         0708  8  26 00 00 00 00 00 00 E5 
   139)     11459.4  Rx         0708  8  27 FD 1F 00 00 00 E0 02 
   140)     11462.4  Rx         0708  8  28 8C 00 00 00 00 00 00 
   141)     11465.4  Rx         0708  8  29 00 E5 FD 1F 00 00 00 
   142)     11468.2  Rx         0708  8  2A E0 02 70 00 00 00 00 
   143)     11471.5  Rx         0708  8  2B 00 00 00 E5 FD 1F 00 
   144)     11474.5  Rx         0708  8  2C 00 00 E0 02 6C 00 00 
   145)     11477.4  Rx         0708  8  2D 00 00 00 00 00 E5 FD 
   146)     11480.6  Rx         0708  8  2E 1F 00 00 00 E0 02 68 
   147)     11483.8  Rx         0708  8  2F 00 00 00 00 00 00 00 
   148)     11486.6  Rx         0708  8  20 E5 FD 1F 00 00 00 E0 
   149)     11489.8  Rx         0708  8  21 02 40 00 00 00 00 00 
   150)     11492.8  Rx         0708  8  22 00 00 E5 FD 00 00 00 
   151)     11495.5  Rx         0700  8  10 08 23 15 01 00 00 03 
   152)     11497.1  Rx         0708  8  30 00 00 00 00 00 00 00 
   153)     11497.5  Rx         0700  8  21 00 80 00 00 00 00 00 
   154)     11502.3  Rx         0708  8  10 81 63 1F 00 00 00 E0 
   155)     11502.5  Rx         0700  8  30 00 00 00 00 00 00 00 
   156)     11505.4  Rx         0708  8  21 02 30 00 00 00 00 00 
   157)     11508.1  Rx         0708  8  22 00 00 E5 FD 80 07 21 
   158)     11511.4  Rx         0708  8  23 00 26 06 00 10 F0 FE 
   159)     11514.4  Rx         0708  8  24 80 FF 06 00 85 05 86 
   160)     11517.6  Rx         0708  8  25 0E 01 00 E0 07 60 01 
   161)     11520.4  Rx         0708  8  26 E1 1F 20 08 E0 87 60 
   162)     11523.7  Rx         0708  8  27 01 7F 00 85 05 80 07 
   163)     11526.6  Rx         0708  8  28 21 00 BF FF FA FF 40 
   164)     11530.0  Rx         0708  8  29 06 3F 00 80 07 21 00 
   165)     11532.7  Rx         0708  8  2A BF FF EE FF 40 06 3F 
   166)     11536.0  Rx         0708  8  2B 00 85 05 FF FF FF FF 
   167)     11538.9  Rx         0708  8  2C FF FF FF FF FF FF FF 
   168)     11542.2  Rx         0708  8  2D FF FF FF FF FF FF FF 
   169)     11545.1  Rx         0708  8  2E FF FF FF FF FF FF FF 
   170)     11548.6  Rx         0708  8  2F FF FF FF FF FF FF FF 
   171)     11551.2  Rx         0708  8  20 FF FF FF FF FF FF FF 
   172)     11554.7  Rx         0708  8  21 FF FF FF FF FF FF FF 
   173)     11557.3  Rx         0708  8  22 FF FF FF FF 00 00 00 
   174)     11559.8  Rx         0700  8  10 08 23 15 01 00 00 03 
   175)     11562.2  Rx         0708  8  30 00 00 00 00 00 00 00 
   176)     11562.5  Rx         0700  8  21 80 80 00 00 00 00 00 
   177)     11568.5  Rx         0708  8  10 81 63 FF FF FF FF FF 
   178)     11568.8  Rx         0700  8  30 00 00 00 00 00 00 00 
   179)     11571.6  Rx         0708  8  21 FF FF FF FF FF FF FF 
   180)     11575.0  Rx         0708  8  22 FF FF FF FF FF FF FF 
   181)     11577.8  Rx         0708  8  23 FF FF FF FF FF FF FF 
   182)     11581.8  Rx         0708  8  24 FF FF FF FF FF FF FF 
   183)     11585.1  Rx         0708  8  25 FF FF FF FF FF FF FF 
   184)     11588.2  Rx         0708  8  26 FF FF FF FF FF FF FF 
   185)     11591.4  Rx         0708  8  27 FF FF FF FF FF FF FF 
   186)     11595.2  Rx         0708  8  28 FF FF FF FF FF FF FF 
   187)     11598.3  Rx         0708  8  29 FF FF FF FF FF FF FF 
   188)     11601.3  Rx         0708  8  2A FF FF FF FF FF FF FF 
   189)     11604.4  Rx         0708  8  2B FF FF FF FF FF FF FF 
   190)     11607.5  Rx         0708  8  2C FF FF FF FF FF FF FF 
   191)     11610.8  Rx         0708  8  2D FF FF FF FF FF FF FF 
   192)     11613.8  Rx         0708  8  2E FF FF FF FF FF FF FF 
   193)     11616.7  Rx         0708  8  2F FF FF FF FF FF FF FF 
   194)     11619.8  Rx         0708  8  20 FF FF FF FF FF FF FF 
   195)     11623.1  Rx         0708  8  21 FF FF FF FF FF FF FF 
   196)     11625.9  Rx         0708  8  22 FF FF FF FF 00 00 00 
   197)     11628.6  Rx         0700  8  10 08 23 15 01 00 00 04 
   198)     11630.4  Rx         0708  8  30 00 00 00 00 00 00 00 
   199)     11630.7  Rx         0700  8  21 00 80 00 00 00 00 00 
   200)     11633.1  Rx         0708  8  10 81 63 00 00 00 00 00 
   201)     11633.4  Rx         0700  8  30 00 00 00 00 00 00 00 
   202)     11636.5  Rx         0708  8  21 00 00 00 00 00 00 00 
   203)     11639.2  Rx         0708  8  22 00 00 95 FD FF FF FF 
   204)     11642.5  Rx         0708  8  23 FF FF FF FF FF FF FF 
   205)     11645.4  Rx         0708  8  24 FF FF FF FF FF FF FF 
   206)     11648.7  Rx         0708  8  25 FF FF FF FF FF FF FF 
   207)     11651.5  Rx         0708  8  26 FF FF FF FF FF FF FF 
   208)     11654.9  Rx         0708  8  27 FF FF FF FF FF FF FF 
   209)     11657.7  Rx         0708  8  28 FF FF FF FF FF FF FF 
   210)     11661.8  Rx         0708  8  29 FF FF FF FF FF FF FF 
   211)     11665.3  Rx         0708  8  2A FF FF FF FF FF FF FF 
   212)     11667.9  Rx         0708  8  2B FF FF FF FF FF FF FF 
   213)     11671.1  Rx         0708  8  2C FF FF FF FF FF FF FF 
   214)     11674.9  Rx         0708  8  2D FF FF FF FF FF FF FF 
   215)     11678.2  Rx         0708  8  2E FF FF FF FF FF FF FF 
   216)     11681.6  Rx         0708  8  2F FF FF FF FF FF FF FF 
   217)     11684.5  Rx         0708  8  20 FF FF FF FF FF FF FF 
   218)     11687.3  Rx         0708  8  21 FF FF FF FF FF FF FF 
   219)     11690.4  Rx         0708  8  22 FF FF FF FF 00 00 00 
   220)     11693.8  Rx         0700  8  10 08 23 15 01 00 00 04 
   221)     11695.7  Rx         0708  8  30 00 00 00 00 00 00 00 
   222)     11696.2  Rx         0700  8  21 80 80 00 00 00 00 00 
   223)     11698.6  Rx         0708  8  10 81 63 FF FF FF FF FF 
   224)     11699.1  Rx         0700  8  30 00 00 00 00 00 00 00 
   225)     11702.0  Rx         0708  8  21 FF FF FF FF FF FF FF 
   226)     11704.8  Rx         0708  8  22 FF FF FF FF FF FF FF 
   227)     11708.3  Rx         0708  8  23 FF FF FF FF FF FF FF 
   228)     11710.9  Rx         0708  8  24 FF FF FF FF FF FF FF 
   229)     11714.7  Rx         0708  8  25 FF FF FF FF FF FF FF 
   230)     11717.3  Rx         0708  8  26 FF FF FF FF FF FF FF 
   231)     11720.3  Rx         0708  8  27 FF FF FF FF FF FF FF 
   232)     11723.2  Rx         0708  8  28 FF FF FF FF FF FF FF 
   233)     11726.3  Rx         0708  8  29 FF FF FF FF FF FF FF 
   234)     11729.3  Rx         0708  8  2A FF FF FF FF FF FF FF 
   235)     11732.4  Rx         0708  8  2B FF FF FF FF FF FF FF 
   236)     11735.8  Rx         0708  8  2C FF FF FF FF FF FF FF 
   237)     11738.6  Rx         0708  8  2D FF FF FF FF FF FF FF 
   238)     11741.6  Rx         0708  8  2E FF FF FF FF FF FF FF 
   239)     11745.3  Rx         0708  8  2F FF FF FF FF FF FF FF 
   240)     11748.0  Rx         0708  8  20 FF FF FF FF FF FF FF 
   241)     11750.8  Rx         0708  8  21 FF FF FF FF FF FF FF 
   242)     11754.9  Rx         0708  8  22 FF FF FF FF 00 00 00 
   243)     11757.5  Rx         0700  8  10 08 23 15 01 00 00 05 
   244)     11759.5  Rx         0708  8  30 00 00 00 00 00 00 00 
   245)     11759.8  Rx         0700  8  21 00 80 00 00 00 00 00 
   246)     11764.7  Rx         0708  8  10 81 63 33 06 00 80 A0 
   247)     11765.1  Rx         0700  8  30 00 00 00 00 00 00 00 
   248)     11768.3  Rx         0708  8  21 FF 01 0A 93 07 8D 08 
   249)     11771.8  Rx         0708  8  22 20 4A B3 07 85 08 20 
   250)     11774.6  Rx         0708  8  23 4A 1F 00 1C 00 F8 0F 
   251)     11777.6  Rx         0708  8  24 40 20 81 0E 00 01 E1 
   252)     11780.5  Rx         0708  8  25 C7 20 20 F8 0F 40 20 
   253)     11783.9  Rx         0708  8  26 89 0A D1 FD F8 0F 40 
   254)     11786.7  Rx         0708  8  27 68 81 0E 02 00 E1 C7 
   255)     11789.7  Rx         0708  8  28 20 68 F8 0F 40 68 82 
   256)     11792.8  Rx         0708  8  29 0A D1 FD 3E 06 00 70 
   257)     11795.9  Rx         0708  8  2A 01 00 21 06 00 20 A1 
   258)     11799.1  Rx         0708  8  2B FF 00 95 44 F2 61 97 
   259)     11802.0  Rx         0708  8  2C 01 00 03 92 44 0A CF 
   260)     11805.1  Rx         0708  8  2D 92 F2 F1 81 FD 93 07 
   261)     11808.5  Rx         0708  8  2E 8D 00 20 4A B3 07 85 
   262)     11811.5  Rx         0708  8  2F 08 20 4A 1F 00 1C 00 
   263)     11814.4  Rx         0708  8  20 F8 0F 40 20 81 0E 00 
   264)     11817.4  Rx         0708  8  21 01 E1 C7 20 20 F8 0F 
   265)     11820.6  Rx         0708  8  22 40 20 89 0A 00 00 00 
   266)     11823.0  Rx         0700  8  10 08 23 15 01 00 00 05 
   267)     11824.9  Rx         0708  8  30 00 00 00 00 00 00 00 
   268)     11825.5  Rx         0700  8  21 80 80 00 00 00 00 00 
   269)     11830.7  Rx         0708  8  10 81 63 D1 FD F8 0F 40 
   270)     11831.2  Rx         0700  8  30 00 00 00 00 00 00 00 
   271)     11833.8  Rx         0708  8  21 68 81 0E 02 00 E1 C7 
   272)     11836.8  Rx         0708  8  22 20 68 F8 0F 40 68 82 
   273)     11840.6  Rx         0708  8  23 0A D1 FD 1C 00 7F 00 
   274)     11843.1  Rx         0708  8  24 80 07 09 08 48 8C 33 
   275)     11846.4  Rx         0708  8  25 06 FE 3F FF FF 06 F0 
   276)     11849.1  Rx         0708  8  26 00 52 53 09 81 0E 01 
   277)     11852.2  Rx         0708  8  27 40 80 07 0F 08 48 8C 
   278)     11855.3  Rx         0708  8  28 80 07 09 08 48 8C 1F 
   279)     11858.6  Rx         0708  8  29 00 0A 08 85 0D 00 9D 
   280)     11861.6  Rx         0708  8  2A 7F 9A B2 05 01 52 A5 
   281)     11864.8  Rx         0708  8  2B 25 44 F2 41 0A E7 09 
   282)     11867.5  Rx         0708  8  2C 86 FD 20 0E 01 40 3E 
   283)     11870.6  Rx         0708  8  2D 06 50 25 C6 FF 01 0D 
   284)     11873.8  Rx         0708  8  2E 00 0D 1F 00 06 F0 82 
   285)     11877.3  Rx         0708  8  2F 3A B2 0D 00 0D 01 06 
   286)     11879.8  Rx         0708  8  20 01 FC B2 05 01 52 D5 
   287)     11883.2  Rx         0708  8  21 05 1E F6 10 00 E7 06 
   288)     11886.1  Rx         0708  8  22 11 00 20 0E 00 00 00 
   289)     11888.6  Rx         0700  8  10 08 23 15 01 00 00 06 
   290)     11890.2  Rx         0708  8  30 00 00 00 00 00 00 00 
   291)     11890.7  Rx         0700  8  21 00 80 00 00 00 00 00 
   292)     11895.5  Rx         0708  8  10 81 63 00 40 3E 06 50 
   293)     11895.8  Rx         0700  8  30 00 00 00 00 00 00 00 
   294)     11898.6  Rx         0708  8  21 25 C6 FF 01 0D 00 0D 
   295)     11901.4  Rx         0708  8  22 1F 00 3E 06 00 24 C6 
   296)     11904.4  Rx         0708  8  23 FF 00 0D 33 06 FE 3F 
   297)     11907.5  Rx         0708  8  24 FF FF 53 09 81 0E 00 
   298)     11910.8  Rx         0708  8  25 40 01 0D 00 0D 1F 00 
   299)     11913.6  Rx         0708  8  26 7F 00 FF FF FF FF FF 
   300)     11916.7  Rx         0708  8  27 FF FF FF FF FF FF FF 
   301)     11919.8  Rx         0708  8  28 FF FF FF FF FF FF FF 
   302)     11922.9  Rx         0708  8  29 FF FF FF FF FF FF FF 
   303)     11926.0  Rx         0708  8  2A FF FF FF FF FF FF FF 
   304)     11929.4  Rx         0708  8  2B FF FF FF FF FF FF FF 
   305)     11932.1  Rx         0708  8  2C FF FF FF FF FF FF FF 
   306)     11935.6  Rx         0708  8  2D FF FF FF FF FF FF FF 
   307)     11938.2  Rx         0708  8  2E FF FF FF FF FF FF FF 
   308)     11941.6  Rx         0708  8  2F FF FF FF FF FF FF FF 
   309)     11944.4  Rx         0708  8  20 FF FF FF FF FF FF FF 
   310)     11947.8  Rx         0708  8  21 FF FF FF FF FF FF FF 
   311)     11950.5  Rx         0708  8  22 FF FF FF FF 00 00 00 
   312)     11952.8  Rx         0700  8  10 08 23 15 01 00 00 06 
   313)     11954.6  Rx         0708  8  30 00 00 00 00 00 00 00 
   314)     11955.1  Rx         0700  8  21 80 80 00 00 00 00 00 
   315)     11962.0  Rx         0708  8  10 81 63 FF FF FF FF FF 
   316)     11962.3  Rx         0700  8  30 00 00 00 00 00 00 00 
   317)     11964.9  Rx         0708  8  21 FF FF FF FF FF FF FF 
   318)     11968.1  Rx         0708  8  22 FF FF FF FF FF FF FF 
   319)     11971.4  Rx         0708  8  23 FF FF FF FF FF FF FF 
   320)     11974.9  Rx         0708  8  24 FF FF FF FF FF FF FF 
   321)     11978.7  Rx         0708  8  25 FF FF FF FF FF FF FF 
   322)     11981.4  Rx         0708  8  26 FF FF FF FF FF FF FF 
   323)     11984.3  Rx         0708  8  27 FF FF FF FF FF FF FF 
   324)     11987.6  Rx         0708  8  28 FF FF FF FF FF FF FF 
   325)     11990.6  Rx         0708  8  29 FF FF FF FF FF FF FF 
   326)     11993.8  Rx         0708  8  2A FF FF FF FF FF FF FF 
   327)     11996.6  Rx         0708  8  2B FF FF FF FF FF FF FF 
   328)     11999.9  Rx         0708  8  2C FF FF FF FF FF FF FF 
   329)     12002.7  Rx         0708  8  2D FF FF FF FF FF FF FF 
   330)     12006.3  Rx         0708  8  2E FF FF FF FF FF FF FF 
   331)     12009.1  Rx         0708  8  2F FF FF FF FF FF FF FF 
   332)     12012.0  Rx         0708  8  20 FF FF FF FF FF FF FF 
   333)     12015.1  Rx         0708  8  21 FF FF FF FF FF FF FF 
   334)     12018.4  Rx         0708  8  22 FF FF FF FF 00 00 00 
   335)     12023.2  Rx         0700  8  10 08 23 15 01 00 00 07 
   336)     12026.2  Rx         0708  8  30 00 00 00 00 00 00 00 
   337)     12026.4  Rx         0700  8  21 00 80 00 00 00 00 00 
   338)     12030.7  Rx         0708  8  10 81 63 FF FF FF FF FF 
   339)     12031.4  Rx         0700  8  30 00 00 00 00 00 00 00 
   340)     12034.5  Rx         0708  8  21 FF FF FF FF FF FF FF 
   341)     12038.3  Rx         0708  8  22 FF FF FF FF FF FF FF 
   342)     12042.4  Rx         0708  8  23 FF FF FF FF FF FF FF 
   343)     12045.8  Rx         0708  8  24 FF FF FF FF FF FF FF 
   344)     12048.8  Rx         0708  8  25 FF FF FF FF FF FF FF 
   345)     12051.9  Rx         0708  8  26 FF FF FF FF FF FF FF 
   346)     12055.3  Rx         0708  8  27 FF FF FF FF FF FF FF 
   347)     12058.1  Rx         0708  8  28 FF FF FF FF FF FF FF 
   348)     12061.4  Rx         0708  8  29 FF FF FF FF FF FF FF 
   349)     12064.4  Rx         0708  8  2A FF FF FF FF FF FF FF 
   350)     12067.4  Rx         0708  8  2B FF FF FF FF FF FF FF 
   351)     12070.9  Rx         0708  8  2C FF FF FF FF FF FF FF 
   352)     12073.8  Rx         0708  8  2D FF FF FF FF FF FF FF 
   353)     12076.7  Rx         0708  8  2E FF FF FF FF FF FF FF 
   354)     12079.6  Rx         0708  8  2F FF FF FF FF FF FF FF 
   355)     12082.8  Rx         0708  8  20 FF FF FF FF FF FF FF 
   356)     12085.7  Rx         0708  8  21 FF FF FF FF FF FF FF 
   357)     12089.4  Rx         0708  8  22 FF FF FF FF 00 00 00 
   358)     12092.1  Rx         0700  8  10 08 23 15 01 00 00 07 
   359)     12095.3  Rx         0708  8  30 00 00 00 00 00 00 00 
   360)     12095.6  Rx         0700  8  21 80 80 00 00 00 00 00 
   361)     12100.1  Rx         0708  8  10 81 63 FF FF FF FF FF 
   362)     12100.3  Rx         0700  8  30 00 00 00 00 00 00 00 
   363)     12103.1  Rx         0708  8  21 FF FF FF FF FF FF FF 
   364)     12106.4  Rx         0708  8  22 FF FF FF FF FF FF FF 
   365)     12109.2  Rx         0708  8  23 FF FF FF FF FF FF FF 
   366)     12112.5  Rx         0708  8  24 FF FF FF FF FF FF FF 
   367)     12115.4  Rx         0708  8  25 FF FF FF FF FF FF FF 
   368)     12118.7  Rx         0708  8  26 FF FF FF FF FF FF FF 
   369)     12122.2  Rx         0708  8  27 FF FF FF FF FF FF FF 
   370)     12125.3  Rx         0708  8  28 FF FF FF FF FF FF FF 
   371)     12128.7  Rx         0708  8  29 FF FF FF FF FF FF FF 
   372)     12131.8  Rx         0708  8  2A FF FF FF FF FF FF FF 
   373)     12134.9  Rx         0708  8  2B FF FF FF FF FF FF FF 
   374)     12138.2  Rx         0708  8  2C FF FF FF FF FF FF FF 
   375)     12141.6  Rx         0708  8  2D FF FF FF FF FF FF FF 
   376)     12144.1  Rx         0708  8  2E FF FF FF FF FF FF FF 
   377)     12147.1  Rx         0708  8  2F FF FF FF FF FF FF FF 
   378)     12150.4  Rx         0708  8  20 FF FF FF FF FF FF FF 
   379)     12153.3  Rx         0708  8  21 FF FF FF FF FF FF FF 
   380)     12156.4  Rx         0708  8  22 FF FF FF FF 00 00 00 
   381)     12158.6  Rx         0700  8  10 08 23 15 01 00 00 08 
   382)     12160.5  Rx         0708  8  30 00 00 00 00 00 00 00 
   383)     12160.8  Rx         0700  8  21 00 80 00 00 00 00 00 
   384)     12166.8  Rx         0708  8  10 81 63 1F 00 00 00 E0 
   385)     12167.3  Rx         0700  8  30 00 00 00 00 00 00 00 
   386)     12170.8  Rx         0708  8  21 02 98 16 00 00 00 00 
   387)     12174.2  Rx         0708  8  22 00 00 E5 FD 1F 00 00 
   388)     12176.8  Rx         0708  8  23 00 E0 02 7C 16 00 00 
   389)     12180.3  Rx         0708  8  24 00 00 00 00 E5 FD 1F 
   390)     12183.2  Rx         0708  8  25 00 00 00 E0 02 78 16 
   391)     12186.1  Rx         0708  8  26 00 00 00 00 00 00 E5 
   392)     12189.3  Rx         0708  8  27 FD 1F 00 00 00 E0 02 
   393)     12192.2  Rx         0708  8  28 5C 16 00 00 00 00 00 
   394)     12195.5  Rx         0708  8  29 00 E5 FD 1F 00 00 00 
   395)     12198.3  Rx         0708  8  2A E0 02 4C 16 00 00 00 
   396)     12201.7  Rx         0708  8  2B 00 00 00 E5 FD 1F 00 
   397)     12204.7  Rx         0708  8  2C 00 00 E0 02 3C 16 00 
   398)     12207.5  Rx         0708  8  2D 00 00 00 00 00 E5 FD 
   399)     12210.7  Rx         0708  8  2E 1F 00 00 00 E0 02 2C 
   400)     12214.4  Rx         0708  8  2F 16 00 00 00 00 00 00 
   401)     12216.8  Rx         0708  8  20 E5 FD 1F 00 00 00 E0 
   402)     12220.2  Rx         0708  8  21 02 1C 16 00 00 00 00 
   403)     12222.9  Rx         0708  8  22 00 00 E5 FD 00 00 00 
   404)     12225.5  Rx         0700  8  10 08 23 15 01 00 00 08 
   405)     12227.1  Rx         0708  8  30 00 00 00 00 00 00 00 
   406)     12227.4  Rx         0700  8  21 80 80 00 00 00 00 00 
   407)     12231.4  Rx         0708  8  10 81 63 1F 00 00 00 E0 
   408)     12231.7  Rx         0700  8  30 00 00 00 00 00 00 00 
   409)     12234.6  Rx         0708  8  21 02 0C 16 00 00 00 00 
   410)     12237.4  Rx         0708  8  22 00 00 E5 FD 1F 00 00 
   411)     12240.3  Rx         0708  8  23 00 E0 02 FC 15 00 00 
   412)     12243.7  Rx         0708  8  24 00 00 00 00 E5 FD 1F 
   413)     12246.4  Rx         0708  8  25 00 00 00 E0 02 EC 15 
   414)     12249.5  Rx         0708  8  26 00 00 00 00 00 00 E5 
   415)     12253.0  Rx         0708  8  27 FD 1F 00 00 00 E0 02 
   416)     12255.7  Rx         0708  8  28 E8 15 00 00 00 00 00 
   417)     12259.3  Rx         0708  8  29 00 E5 FD 1F 00 00 00 
   418)     12261.8  Rx         0708  8  2A E0 02 CC 15 00 00 00 
   419)     12265.1  Rx         0708  8  2B 00 00 00 E5 FD 1F 00 
   420)     12268.1  Rx         0708  8  2C 00 00 E0 02 C8 15 00 
   421)     12271.1  Rx         0708  8  2D 00 00 00 00 00 E5 FD 
   422)     12275.1  Rx         0708  8  2E 1F 00 00 00 E0 02 C4 
   423)     12278.4  Rx         0708  8  2F 15 00 00 00 00 00 00 
   424)     12281.6  Rx         0708  8  20 E5 FD 1F 00 00 00 E0 
   425)     12284.8  Rx         0708  8  21 02 9C 15 00 00 00 00 
   426)     12287.4  Rx         0708  8  22 00 00 E5 FD 00 00 00 
   427)     12289.8  Rx         0700  8  10 08 23 15 01 00 00 09 
   428)     12291.8  Rx         0708  8  30 00 00 00 00 00 00 00 
   429)     12292.1  Rx         0700  8  21 00 80 00 00 00 00 00 
   430)     12297.6  Rx         0708  8  10 81 63 1F 00 00 00 E5 
   431)     12298.1  Rx         0700  8  30 00 00 00 00 00 00 00 
   432)     12301.2  Rx         0708  8  21 05 00 00 00 00 00 00 
   433)     12303.8  Rx         0708  8  22 00 00 C5 FD 03 1E F4 
   434)     12307.1  Rx         0708  8  23 FF 63 37 09 00 E0 37 
   435)     12310.1  Rx         0708  8  24 40 00 63 37 05 00 E1 
   436)     12313.3  Rx         0708  8  25 37 40 00 63 37 01 00 
   437)     12316.4  Rx         0708  8  26 ED 37 40 00 E0 87 60 
   438)     12319.4  Rx         0708  8  27 01 E1 47 60 F9 FF 02 
   439)     12322.2  Rx         0708  8  28 2A 00 00 00 E1 67 60 
   440)     12325.5  Rx         0708  8  29 F9 E0 07 60 01 23 37 
   441)     12328.4  Rx         0708  8  2A 01 00 E6 0F 20 00 23 
   442)     12331.4  Rx         0708  8  2B 37 05 00 E6 07 20 00 
   443)     12334.7  Rx         0708  8  2C 23 37 09 00 03 1E 0C 
   444)     12337.6  Rx         0708  8  2D 00 E0 07 48 01 80 07 
   445)     12341.1  Rx         0708  8  2E 61 00 00 0A C5 05 E6 
   446)     12344.2  Rx         0708  8  2F 99 A2 0D 41 0A 01 F0 
   447)     12346.8  Rx         0708  8  20 C3 F2 25 9E 78 39 D3 
   448)     12349.9  Rx         0708  8  21 F1 00 9D 7F 9A EA F5 
   449)     12353.2  Rx         0708  8  22 02 ED FD C7 00 00 00 
   450)     12355.5  Rx         0700  8  10 08 23 15 01 00 00 09 
   451)     12357.4  Rx         0708  8  30 00 00 00 00 00 00 00 
   452)     12357.6  Rx         0700  8  21 80 80 00 00 00 00 00 
   453)     12363.2  Rx         0708  8  10 81 63 60 F9 40 06 7F 
   454)     12363.5  Rx         0700  8  30 00 00 00 00 00 00 00 
   455)     12366.5  Rx         0708  8  21 00 FF FF E0 07 60 01 
   456)     12369.6  Rx         0708  8  22 E0 57 40 10 B0 52 61 
   457)     12373.2  Rx         0708  8  23 52 BA 2D 2A 06 02 00 
   458)     12377.2  Rx         0708  8  24 01 00 EA C7 20 20 F8 
   459)     12379.8  Rx         0708  8  25 5F 40 20 1C 00 2A 06 
   460)     12382.7  Rx         0708  8  26 02 01 01 00 EA C7 20 
   461)     12385.7  Rx         0708  8  27 20 F8 5F 40 20 1C 00 
   462)     12388.8  Rx         0708  8  28 EB 51 C2 FD 2A 06 03 
   463)     12391.8  Rx         0708  8  29 00 01 00 EA C7 20 20 
   464)     12395.2  Rx         0708  8  2A F8 5F 40 20 1C 00 00 
   465)     12398.0  Rx         0708  8  2B 52 EA C7 20 68 F8 5F 
   466)     12401.1  Rx         0708  8  2C 40 68 02 52 EA C7 20 
   467)     12404.4  Rx         0708  8  2D 68 F8 5F 40 68 01 52 
   468)     12407.5  Rx         0708  8  2E EA C7 20 68 F8 5F 40 
   469)     12410.3  Rx         0708  8  2F 68 1C 00 E0 57 40 10 
   470)     12413.6  Rx         0708  8  20 B0 52 61 52 DA 05 23 
   471)     12416.6  Rx         0708  8  21 06 00 08 BF FE C5 05 
   472)     12419.5  Rx         0708  8  22 23 06 00 88 00 00 00 
   473)     12423.6  Rx         0700  8  10 08 23 15 01 00 00 0A 
   474)     12425.7  Rx         0708  8  30 00 00 00 00 00 00 00 
   475)     12426.1  Rx         0700  8  21 00 80 00 00 00 00 00 
   476)     12428.7  Rx         0708  8  10 81 63 DF FE 24 06 00 
   477)     12429.2  Rx         0700  8  30 00 00 00 00 00 00 00 
   478)     12432.0  Rx         0708  8  21 96 F0 FE 25 06 00 87 
   479)     12435.0  Rx         0708  8  22 00 00 29 06 00 88 F8 
   480)     12438.2  Rx         0708  8  23 FF 29 6F 01 00 61 6A 
   481)     12441.1  Rx         0708  8  24 EA 07 CD 01 E0 57 40 
   482)     12444.1  Rx         0708  8  25 10 B0 52 61 52 DA 05 
   483)     12447.5  Rx         0708  8  26 2A 06 00 08 00 00 C5 
   484)     12450.5  Rx         0708  8  27 05 2A 06 00 08 00 00 
   485)     12453.3  Rx         0708  8  28 8A 56 01 00 EA 1F 20 
   486)     12456.4  Rx         0708  8  29 08 E0 57 40 10 B0 52 
   487)     12459.4  Rx         0708  8  2A 61 52 DA 05 2A 06 20 
   488)     12462.5  Rx         0708  8  2B 80 01 00 C5 05 2A 06 
   489)     12465.7  Rx         0708  8  2C 20 80 00 00 EA 2F 20 
   490)     12468.7  Rx         0708  8  2D 00 1C 00 20 56 00 00 
   491)     12471.7  Rx         0708  8  2E EA 3F 20 10 1C 00 1F 
   492)     12475.3  Rx         0708  8  2F 00 20 56 00 00 EA 5F 
   493)     12478.5  Rx         0708  8  20 20 08 E0 57 40 10 B0 
   494)     12481.0  Rx         0708  8  21 52 61 52 A2 05 1F 00 
   495)     12484.3  Rx         0708  8  22 00 52 EA 67 00 00 00 
   496)     12487.7  Rx         0700  8  10 08 23 15 01 00 00 0A 
   497)     12489.7  Rx         0708  8  30 00 00 00 00 00 00 00 
   498)     12490.1  Rx         0700  8  21 80 80 00 00 00 00 00 
   499)     12494.5  Rx         0708  8  10 81 63 20 08 2A 06 04 
   500)     12495.0  Rx         0700  8  30 00 00 00 00 00 00 00 
   501)     12498.5  Rx         0708  8  21 00 01 00 EA 07 20 08 
   502)     12502.2  Rx         0708  8  22 1C 00 40 56 00 80 EA 
   503)     12505.6  Rx         0708  8  23 2F 20 08 1C 00 E0 57 
   504)     12508.6  Rx         0708  8  24 40 10 B0 52 61 52 EA 
   505)     12511.6  Rx         0708  8  25 05 40 0E 01 00 21 56 
   506)     12515.1  Rx         0708  8  26 FF FF B5 05 20 56 FF 
   507)     12518.5  Rx         0708  8  27 00 EA 5F 20 10 20 56 
   508)     12522.0  Rx         0708  8  28 00 00 EA 6F 20 10 20 
   509)     12525.5  Rx         0708  8  29 56 00 00 EA 07 20 28 
   510)     12528.1  Rx         0708  8  2A 1C 00 1F 00 00 52 EA 
   511)     12531.5  Rx         0708  8  2B E7 20 20 E0 57 40 10 
   512)     12534.5  Rx         0708  8  2C B0 52 61 52 8A 0D 40 
   513)     12537.3  Rx         0708  8  2D 56 22 00 EA 37 20 00 
   514)     12540.4  Rx         0708  8  2E 00 52 EA 3F 20 00 E0 
   515)     12543.4  Rx         0708  8  2F 57 40 10 B0 52 61 52 
   516)     12546.5  Rx         0708  8  20 BA 1D 00 5A 2C 06 80 
   517)     12549.8  Rx         0708  8  21 E9 FE FF 6C 5F 00 00 
   518)     12552.6  Rx         0708  8  22 00 5A 2C 06 00 00 00 
   519)     12555.5  Rx         0700  8  10 08 23 15 01 00 00 0B 
   520)     12557.8  Rx         0708  8  30 00 00 00 00 00 00 00 
   521)     12558.0  Rx         0700  8  21 00 80 00 00 00 00 00 
   522)     12563.1  Rx         0708  8  10 81 63 82 E9 FE FF 6C 
   523)     12563.3  Rx         0700  8  30 00 00 00 00 00 00 00 
   524)     12566.3  Rx         0708  8  21 5F 00 00 00 5A 2C 06 
   525)     12569.3  Rx         0708  8  22 88 E9 FE FF 6C 5F 01 
   526)     12572.3  Rx         0708  8  23 00 20 5E C4 03 2C 06 
   527)     12575.2  Rx         0708  8  24 80 E9 FE FF 6C 5F 00 
   528)     12578.5  Rx         0708  8  25 00 D5 0D 00 5A 2C 06 
   529)     12581.5  Rx         0708  8  26 F0 E9 FE FF 6C 5F 00 
   530)     12584.3  Rx         0708  8  27 00 00 5A 2C 06 F2 E9 
   531)     12587.5  Rx         0708  8  28 FE FF 6C 5F 00 00 00 
   532)     12590.7  Rx         0708  8  29 52 EA 07 20 00 EA 17 
   533)     12593.8  Rx         0708  8  2A 20 00 EA 87 20 00 EA 
   534)     12596.8  Rx         0708  8  2B A7 20 00 EA E7 20 00 
   535)     12599.7  Rx         0708  8  2C EA EF 20 00 EA 37 20 
   536)     12603.0  Rx         0708  8  2D 10 EA 47 20 10 1C 00 
   537)     12606.3  Rx         0708  8  2E 1E 00 E0 57 40 10 B0 
   538)     12609.3  Rx         0708  8  2F 52 61 52 8A 15 2B 06 
   539)     12612.2  Rx         0708  8  20 00 08 BF FE 2C 06 00 
   540)     12615.3  Rx         0708  8  21 00 BF FE EC 59 F3 15 
   541)     12618.4  Rx         0708  8  22 6C 07 01 00 00 00 00 
   542)     12621.0  Rx         0700  8  10 08 23 15 01 00 00 0B 
   543)     12623.3  Rx         0708  8  30 00 00 00 00 00 00 00 
   544)     12623.5  Rx         0700  8  21 80 80 00 00 00 00 00 
   545)     12628.6  Rx         0708  8  10 81 63 0C 66 04 00 EC 
   546)     12629.1  Rx         0700  8  30 00 00 00 00 00 00 00 
   547)     12632.6  Rx         0708  8  21 59 BB FD 85 15 2B 06 
   548)     12636.1  Rx         0708  8  22 00 88 DF FE 2C 06 00 
   549)     12638.6  Rx         0708  8  23 80 DF FE EC 59 E3 15 
   550)     12641.7  Rx         0708  8  24 6C 07 01 00 0C 66 04 
   551)     12645.2  Rx         0708  8  25 00 EC 59 BB FD F5 0D 
   552)     12648.0  Rx         0708  8  26 2B 06 00 80 F0 FE 2C 
   553)     12651.5  Rx         0708  8  27 06 00 00 F0 FE EC 59 
   554)     12655.9  Rx         0708  8  28 F3 05 6C 07 01 00 0C 
   555)     12659.3  Rx         0708  8  29 66 04 00 EC 59 BB FD 
   556)     12662.3  Rx         0708  8  2A 00 52 EA 5F 20 10 1F 
   557)     12665.5  Rx         0708  8  2B 00 1C 00 E0 87 60 01 
   558)     12668.3  Rx         0708  8  2C E0 57 40 10 B0 52 61 
   559)     12671.4  Rx         0708  8  2D 52 BA 05 80 FF 34 07 
   560)     12674.5  Rx         0708  8  2E 80 FF 56 07 85 05 26 
   561)     12677.8  Rx         0708  8  2F 06 04 80 F8 FF 26 77 
   562)     12680.6  Rx         0708  8  20 01 00 67 72 DA FD E0 
   563)     12684.1  Rx         0708  8  21 57 40 10 B0 52 61 52 
   564)     12686.8  Rx         0708  8  22 AA 05 C5 1D 00 00 00 
   565)     12688.7  Rx         0700  8  10 08 23 15 01 00 00 0C 
   566)     12691.0  Rx         0708  8  30 00 00 00 00 00 00 00 
   567)     12691.3  Rx         0700  8  21 00 80 00 00 00 00 00 
   568)     12694.3  Rx         0708  8  10 81 63 20 46 23 00 2E 
   569)     12694.5  Rx         0700  8  30 00 00 00 00 00 00 00 
   570)     12697.7  Rx         0708  8  21 06 08 90 F8 FF 2E 6F 
   571)     12700.0  Rx         0708  8  22 01 00 E8 69 DA FD 2E 
   572)     12703.3  Rx         0708  8  23 06 04 88 F8 FF 2E 6F 
   573)     12706.4  Rx         0708  8  24 01 00 61 6A DA FD 20 
   574)     12709.3  Rx         0708  8  25 46 24 00 2C 06 48 90 
   575)     12712.3  Rx         0708  8  26 F8 FF 2C 6F 01 00 E8 
   576)     12715.5  Rx         0708  8  27 69 DA FD BF 07 EC FD 
   577)     12718.5  Rx         0708  8  28 27 06 00 B0 F8 FF 20 
   578)     12721.9  Rx         0708  8  29 36 A5 00 67 37 01 00 
   579)     12725.4  Rx         0708  8  2A 20 46 23 00 29 06 00 
   580)     12728.1  Rx         0708  8  2B 90 F8 FF 69 47 01 00 
   581)     12731.0  Rx         0708  8  2C 20 56 DC FF 69 57 01 
   582)     12734.2  Rx         0708  8  2D 00 69 47 01 00 E0 0F 
   583)     12737.6  Rx         0708  8  2E 20 01 E0 0F 20 01 E0 
   584)     12740.2  Rx         0708  8  2F 0F 20 01 E0 0F 20 01 
   585)     12743.6  Rx         0708  8  20 E0 0F 20 01 2E 06 08 
   586)     12746.3  Rx         0708  8  21 90 F8 FF 2E 6F 01 00 
   587)     12749.5  Rx         0708  8  22 E8 69 DA FD 00 00 00 
   588)     12754.3  Rx         0700  8  10 08 23 15 01 00 00 0C 
   589)     12756.4  Rx         0708  8  30 00 00 00 00 00 00 00 
   590)     12756.6  Rx         0700  8  21 80 80 00 00 00 00 00 
   591)     12759.5  Rx         0708  8  10 81 63 67 37 01 00 02 
   592)     12760.0  Rx         0700  8  30 00 00 00 00 00 00 00 
   593)     12762.5  Rx         0708  8  21 42 29 06 00 88 F8 FF 
   594)     12765.6  Rx         0708  8  22 69 47 01 00 1D 52 69 
   595)     12769.4  Rx         0708  8  23 57 01 00 69 47 01 00 
   596)     12772.8  Rx         0708  8  24 67 37 01 00 20 46 22 
   597)     12775.9  Rx         0708  8  25 00 2B 06 40 90 F8 FF 
   598)     12779.0  Rx         0708  8  26 6B 47 01 00 20 56 DD 
   599)     12782.0  Rx         0708  8  27 FF 6B 57 01 00 6B 47 
   600)     12785.3  Rx         0708  8  28 01 00 E0 0F 20 01 E0 
   601)     12788.2  Rx         0708  8  29 0F 20 01 E0 0F 20 01 
   602)     12791.3  Rx         0708  8  2A E0 0F 20 01 E0 0F 20 
   603)     12794.3  Rx         0708  8  2B 01 2E 06 04 88 F8 FF 
   604)     12797.3  Rx         0708  8  2C 2E 6F 01 00 61 6A DA 
   605)     12800.7  Rx         0708  8  2D FD 2C 06 48 90 F8 FF 
   606)     12803.7  Rx         0708  8  2E 2C 6F 01 00 E8 69 DA 
   607)     12807.1  Rx         0708  8  2F FD 67 37 01 00 01 42 
   608)     12809.8  Rx         0708  8  20 69 47 01 00 1E 52 69 
   609)     12813.0  Rx         0708  8  21 57 01 00 69 47 01 00 
   610)     12815.8  Rx         0708  8  22 67 37 01 00 00 00 00 
   611)     12818.2  Rx         0700  8  10 08 23 15 01 00 00 0D 
   612)     12820.0  Rx         0708  8  30 00 00 00 00 00 00 00 
   613)     12820.3  Rx         0700  8  21 00 80 00 00 00 00 00 
   614)     12825.2  Rx         0708  8  10 81 63 20 46 24 00 6B 
   615)     12825.5  Rx         0700  8  30 00 00 00 00 00 00 00 
   616)     12828.1  Rx         0708  8  21 47 01 00 20 56 DB FF 
   617)     12831.6  Rx         0708  8  22 6B 57 01 00 6B 47 01 
   618)     12834.3  Rx         0708  8  23 00 E0 0F 20 01 E0 0F 
   619)     12837.6  Rx         0708  8  24 20 01 E0 0F 20 01 E0 
   620)     12840.4  Rx         0708  8  25 0F 20 01 E0 0F 20 01 
   621)     12843.7  Rx         0708  8  26 2E 6F 01 00 61 6A DA 
   622)     12846.5  Rx         0708  8  27 FD 2C 6F 01 00 E8 69 
   623)     12849.6  Rx         0708  8  28 DA FD BF 07 E6 FC E0 
   624)     12852.7  Rx         0708  8  29 07 60 01 06 E8 E0 57 
   625)     12856.2  Rx         0708  8  2A 40 10 B0 52 61 52 BA 
   626)     12859.4  Rx         0708  8  2B 2D 2A 06 02 00 01 00 
   627)     12861.9  Rx         0708  8  2C EA C7 20 20 F8 5F 40 
   628)     12865.0  Rx         0708  8  2D 20 1C 00 2A 06 02 01 
   629)     12868.0  Rx         0708  8  2E 01 00 EA C7 20 20 F8 
   630)     12871.3  Rx         0708  8  2F 5F 40 20 1C 00 EB 51 
   631)     12874.3  Rx         0708  8  20 C2 FD 2A 06 03 00 01 
   632)     12877.2  Rx         0708  8  21 00 EA C7 20 20 F8 5F 
   633)     12880.5  Rx         0708  8  22 40 20 1C 00 00 00 00 
   634)     12882.9  Rx         0700  8  10 08 23 15 01 00 00 0D 
   635)     12884.6  Rx         0708  8  30 00 00 00 00 00 00 00 
   636)     12885.1  Rx         0700  8  21 80 80 00 00 00 00 00 
   637)     12890.6  Rx         0708  8  10 81 63 00 52 EA C7 20 
   638)     12891.0  Rx         0700  8  30 00 00 00 00 00 00 00 
   639)     12893.6  Rx         0708  8  21 68 F8 5F 40 68 02 52 
   640)     12896.7  Rx         0708  8  22 EA C7 20 68 F8 5F 40 
   641)     12899.7  Rx         0708  8  23 68 01 52 EA C7 20 68 
   642)     12902.8  Rx         0708  8  24 F8 5F 40 68 1C 00 E0 
   643)     12906.0  Rx         0708  8  25 57 40 10 B0 52 61 52 
   644)     12909.1  Rx         0708  8  26 DA 05 23 06 00 08 BF 
   645)     12912.2  Rx         0708  8  27 FE C5 05 23 06 00 88 
   646)     12915.3  Rx         0708  8  28 DF FE 24 06 00 96 F0 
   647)     12918.4  Rx         0708  8  29 FE 25 06 00 87 00 00 
   648)     12921.3  Rx         0708  8  2A 29 06 00 88 F8 FF 29 
   649)     12924.5  Rx         0708  8  2B 6F 01 00 61 6A EA 07 
   650)     12927.4  Rx         0708  8  2C CF 01 E0 57 40 10 B0 
   651)     12930.7  Rx         0708  8  2D 52 61 52 DA 05 2A 06 
   652)     12933.5  Rx         0708  8  2E 00 08 00 00 C5 05 2A 
   653)     12937.1  Rx         0708  8  2F 06 00 08 00 00 8A 56 
   654)     12940.2  Rx         0708  8  20 01 00 EA 1F 20 08 E0 
   655)     12942.7  Rx         0708  8  21 57 40 10 B0 52 61 52 
   656)     12946.5  Rx         0708  8  22 DA 05 2A 06 00 00 00 
   657)     12948.5  Rx         0700  8  10 08 23 15 01 00 00 0E 
   658)     12949.9  Rx         0708  8  30 00 00 00 00 00 00 00 
   659)     12950.2  Rx         0700  8  21 00 80 00 00 00 00 00 
   660)     12953.0  Rx         0708  8  10 81 63 20 80 01 00 C5 
   661)     12953.2  Rx         0700  8  30 00 00 00 00 00 00 00 
   662)     12956.2  Rx         0708  8  21 05 2A 06 20 80 00 00 
   663)     12959.1  Rx         0708  8  22 EA 2F 20 00 1C 00 20 
   664)     12962.4  Rx         0708  8  23 56 00 00 EA 3F 20 10 
   665)     12965.5  Rx         0708  8  24 1C 00 1F 00 20 56 00 
   666)     12968.6  Rx         0708  8  25 00 EA 5F 20 08 E0 57 
   667)     12971.7  Rx         0708  8  26 40 10 B0 52 61 52 A2 
   668)     12974.5  Rx         0708  8  27 05 1F 00 00 52 EA 67 
   669)     12978.0  Rx         0708  8  28 20 08 2A 06 04 00 01 
   670)     12980.7  Rx         0708  8  29 00 EA 07 20 08 1C 00 
   671)     12984.2  Rx         0708  8  2A 40 56 00 80 EA 2F 20 
   672)     12987.0  Rx         0708  8  2B 08 1C 00 E0 57 40 10 
   673)     12990.1  Rx         0708  8  2C B0 52 61 52 EA 05 40 
   674)     12993.0  Rx         0708  8  2D 0E 01 00 21 56 FF FF 
   675)     12996.3  Rx         0708  8  2E B5 05 20 56 FF 00 EA 
   676)     12999.3  Rx         0708  8  2F 5F 20 10 20 56 00 00 
   677)     13002.4  Rx         0708  8  20 EA 6F 20 10 20 56 00 
   678)     13005.5  Rx         0708  8  21 00 EA 07 20 28 1C 00 
   679)     13008.3  Rx         0708  8  22 1F 00 00 52 00 00 00 
   680)     13011.0  Rx         0700  8  10 08 23 15 01 00 00 0E 
   681)     13012.7  Rx         0708  8  30 00 00 00 00 00 00 00 
   682)     13013.1  Rx         0700  8  21 80 80 00 00 00 00 00 
   683)     13018.5  Rx         0708  8  10 81 63 EA E7 20 20 E0 
   684)     13019.0  Rx         0700  8  30 00 00 00 00 00 00 00 
   685)     13021.8  Rx         0708  8  21 57 40 10 B0 52 61 52 
   686)     13024.7  Rx         0708  8  22 8A 0D 40 56 22 00 EA 
   687)     13028.0  Rx         0708  8  23 37 20 00 00 52 EA 3F 
   688)     13031.2  Rx         0708  8  24 20 00 E0 57 40 10 B0 
   689)     13034.0  Rx         0708  8  25 52 61 52 BA 1D 00 5A 
   690)     13037.0  Rx         0708  8  26 2C 06 80 E9 FE FF 6C 
   691)     13040.0  Rx         0708  8  27 5F 00 00 00 5A 2C 06 
   692)     13043.3  Rx         0708  8  28 82 E9 FE FF 6C 5F 00 
   693)     13046.7  Rx         0708  8  29 00 00 5A 2C 06 88 E9 
   694)     13049.5  Rx         0708  8  2A FE FF 6C 5F 01 00 20 
   695)     13052.3  Rx         0708  8  2B 5E C4 03 2C 06 80 E9 
   696)     13055.5  Rx         0708  8  2C FE FF 6C 5F 00 00 D5 
   697)     13058.5  Rx         0708  8  2D 0D 00 5A 2C 06 F0 E9 
   698)     13061.6  Rx         0708  8  2E FE FF 6C 5F 00 00 00 
   699)     13064.6  Rx         0708  8  2F 5A 2C 06 F2 E9 FE FF 
   700)     13067.9  Rx         0708  8  20 6C 5F 00 00 00 52 EA 
   701)     13071.5  Rx         0708  8  21 07 20 00 EA 17 20 00 
   702)     13075.0  Rx         0708  8  22 EA 87 20 00 00 00 00 
   703)     13080.4  Rx         0700  8  10 08 23 15 01 00 00 0F 
   704)     13082.0  Rx         0708  8  30 00 00 00 00 00 00 00 
   705)     13082.3  Rx         0700  8  21 00 80 00 00 00 00 00 
   706)     13087.1  Rx         0708  8  10 81 63 EA A7 20 00 EA 
   707)     13087.4  Rx         0700  8  30 00 00 00 00 00 00 00 
   708)     13090.4  Rx         0708  8  21 E7 20 00 EA EF 20 00 
   709)     13093.5  Rx         0708  8  22 EA 37 20 10 EA 47 20 
   710)     13096.6  Rx         0708  8  23 10 1C 00 1E 00 E0 57 
   711)     13099.4  Rx         0708  8  24 40 10 B0 52 61 52 8A 
   712)     13102.8  Rx         0708  8  25 15 2B 06 00 08 BF FE 
   713)     13105.6  Rx         0708  8  26 2C 06 00 00 BF FE EC 
   714)     13108.6  Rx         0708  8  27 59 F3 15 6C 07 01 00 
   715)     13111.7  Rx         0708  8  28 0C 66 04 00 EC 59 BB 
   716)     13115.4  Rx         0708  8  29 FD 85 15 2B 06 00 88 
   717)     13118.0  Rx         0708  8  2A DF FE 2C 06 00 80 DF 
   718)     13121.6  Rx         0708  8  2B FE EC 59 E3 15 6C 07 
   719)     13125.4  Rx         0708  8  2C 01 00 0C 66 04 00 EC 
   720)     13128.3  Rx         0708  8  2D 59 BB FD F5 0D 2B 06 
   721)     13131.2  Rx         0708  8  2E 00 80 F0 FE 2C 06 00 
   722)     13135.2  Rx         0708  8  2F 00 F0 FE EC 59 F3 05 
   723)     13138.6  Rx         0708  8  20 6C 07 01 00 0C 66 04 
   724)     13141.7  Rx         0708  8  21 00 EC 59 BB FD 00 52 
   725)     13144.7  Rx         0708  8  22 EA 5F 20 10 00 00 00 
   726)     13147.0  Rx         0700  8  10 08 23 15 01 00 00 0F 
   727)     13149.6  Rx         0708  8  30 00 00 00 00 00 00 00 
   728)     13150.1  Rx         0700  8  21 80 80 00 00 00 00 00 
   729)     13153.0  Rx         0708  8  10 81 63 1F 00 1C 00 E0 
   730)     13153.3  Rx         0700  8  30 00 00 00 00 00 00 00 
   731)     13155.7  Rx         0708  8  21 87 60 01 1D 30 E0 57 
   732)     13159.0  Rx         0708  8  22 40 10 B0 52 61 52 BA 
   733)     13162.2  Rx         0708  8  23 05 80 FF BA 03 80 FF 
   734)     13165.0  Rx         0708  8  24 CA 03 85 05 26 06 04 
   735)     13168.3  Rx         0708  8  25 80 F8 FF 26 77 01 00 
   736)     13171.1  Rx         0708  8  26 67 72 DA FD E0 57 40 
   737)     13174.2  Rx         0708  8  27 10 B0 52 61 52 AA 05 
   738)     13177.7  Rx         0708  8  28 C5 1D 20 46 23 00 2E 
   739)     13181.0  Rx         0708  8  29 06 08 90 F8 FF 2E 6F 
   740)     13183.6  Rx         0708  8  2A 01 00 E8 69 DA FD 2E 
   741)     13186.6  Rx         0708  8  2B 06 04 88 F8 FF 2E 6F 
   742)     13189.6  Rx         0708  8  2C 01 00 61 6A DA FD 20 
   743)     13192.6  Rx         0708  8  2D 46 24 00 2C 06 48 90 
   744)     13196.2  Rx         0708  8  2E F8 FF 2C 6F 01 00 E8 
   745)     13199.2  Rx         0708  8  2F 69 DA FD BF 07 EA FD 
   746)     13201.8  Rx         0708  8  20 27 06 00 B0 F8 FF 20 
   747)     13205.4  Rx         0708  8  21 36 A5 00 67 37 01 00 
   748)     13208.2  Rx         0708  8  22 20 46 23 00 00 00 00 
   749)     13210.3  Rx         0700  8  10 08 23 15 01 00 00 10 
   750)     13212.3  Rx         0708  8  30 00 00 00 00 00 00 00 
   751)     13212.6  Rx         0700  8  21 00 80 00 00 00 00 00 
   752)     13215.2  Rx         0708  8  10 81 63 29 06 00 90 F8 
   753)     13215.5  Rx         0700  8  30 00 00 00 00 00 00 00 
   754)     13218.4  Rx         0708  8  21 FF 69 47 01 00 20 56 
   755)     13221.3  Rx         0708  8  22 DC FF 69 57 01 00 69 
   756)     13224.6  Rx         0708  8  23 47 01 00 E0 0F 20 01 
   757)     13227.4  Rx         0708  8  24 E0 0F 20 01 E0 0F 20 
   758)     13230.5  Rx         0708  8  25 01 E0 0F 20 01 E0 0F 
   759)     13234.1  Rx         0708  8  26 20 01 2E 06 08 90 F8 
   760)     13237.1  Rx         0708  8  27 FF 2E 6F 01 00 E8 69 
   761)     13239.7  Rx         0708  8  28 DA FD 67 37 01 00 02 
   762)     13243.3  Rx         0708  8  29 42 29 06 00 88 F8 FF 
   763)     13246.2  Rx         0708  8  2A 69 47 01 00 1D 52 69 
   764)     13249.0  Rx         0708  8  2B 57 01 00 69 47 01 00 
   765)     13252.2  Rx         0708  8  2C 67 37 01 00 20 46 22 
   766)     13255.4  Rx         0708  8  2D 00 2B 06 40 90 F8 FF 
   767)     13258.2  Rx         0708  8  2E 6B 47 01 00 20 56 DD 
   768)     13261.7  Rx         0708  8  2F FF 6B 57 01 00 6B 47 
   769)     13264.3  Rx         0708  8  20 01 00 E0 0F 20 01 E0 
   770)     13267.4  Rx         0708  8  21 0F 20 01 E0 0F 20 01 
   771)     13270.5  Rx         0708  8  22 E0 0F 20 01 00 00 00 
   772)     13273.2  Rx         0700  8  10 08 23 15 01 00 00 10 
   773)     13276.1  Rx         0708  8  30 00 00 00 00 00 00 00 
   774)     13276.4  Rx         0700  8  21 80 80 00 00 00 00 00 
   775)     13280.9  Rx         0708  8  10 81 63 E0 0F 20 01 2E 
   776)     13281.4  Rx         0700  8  30 00 00 00 00 00 00 00 
   777)     13285.6  Rx         0708  8  21 06 04 88 F8 FF 2E 6F 
   778)     13289.1  Rx         0708  8  22 01 00 61 6A DA FD 2C 
   779)     13292.0  Rx         0708  8  23 06 48 90 F8 FF 2C 6F 
   780)     13295.7  Rx         0708  8  24 01 00 E8 69 DA FD 67 
   781)     13298.1  Rx         0708  8  25 37 01 00 01 42 69 47 
   782)     13301.6  Rx         0708  8  26 01 00 1E 52 69 57 01 
   783)     13304.2  Rx         0708  8  27 00 69 47 01 00 67 37 
   784)     13307.6  Rx         0708  8  28 01 00 20 46 24 00 6B 
   785)     13310.3  Rx         0708  8  29 47 01 00 20 56 DB FF 
   786)     13313.7  Rx         0708  8  2A 6B 57 01 00 6B 47 01 
   787)     13316.5  Rx         0708  8  2B 00 E0 0F 20 01 E0 0F 
   788)     13319.6  Rx         0708  8  2C 20 01 E0 0F 20 01 E0 
   789)     13322.6  Rx         0708  8  2D 0F 20 01 E0 0F 20 01 
   790)     13326.2  Rx         0708  8  2E 2E 6F 01 00 61 6A DA 
   791)     13328.9  Rx         0708  8  2F FD 2C 6F 01 00 E8 69 
   792)     13332.5  Rx         0708  8  20 DA FD BF 07 E4 FC 80 
   793)     13335.0  Rx         0708  8  21 07 21 00 80 FF 58 81 
   794)     13338.0  Rx         0708  8  22 40 06 3F 00 00 00 00 
   795)     13340.6  Rx         0700  8  10 08 23 15 01 00 00 11 
   796)     13342.3  Rx         0708  8  30 00 00 00 00 00 00 00 
   797)     13342.6  Rx         0700  8  21 00 80 00 00 00 00 00 
   798)     13346.2  Rx         0708  8  10 81 63 80 07 21 00 80 
   799)     13346.4  Rx         0700  8  30 00 00 00 00 00 00 00 
   800)     13349.5  Rx         0708  8  21 FF 98 81 40 06 3F 00 
   801)     13352.8  Rx         0708  8  22 80 07 21 00 80 FF A8 
   802)     13355.7  Rx         0708  8  23 81 40 06 3F 00 80 07 
   803)     13358.7  Rx         0708  8  24 21 00 80 FF 36 82 40 
   804)     13361.6  Rx         0708  8  25 06 3F 00 80 07 21 00 
   805)     13364.7  Rx         0708  8  26 80 FF A2 82 40 06 3F 
   806)     13367.9  Rx         0708  8  27 00 80 07 21 00 80 FF 
   807)     13371.2  Rx         0708  8  28 98 82 40 06 3F 00 80 
   808)     13374.0  Rx         0708  8  29 07 21 00 80 FF 8E 82 
   809)     13376.9  Rx         0708  8  2A 40 06 3F 00 7F 00 80 
   810)     13380.0  Rx         0708  8  2B 07 21 00 01 0A 44 0F 
   811)     13383.2  Rx         0708  8  2C 28 94 64 07 25 94 80 
   812)     13386.2  Rx         0708  8  2D FF 52 37 80 FF A4 AD 
   813)     13389.5  Rx         0708  8  2E 80 FF BE 36 BF FF 90 
   814)     13392.5  Rx         0708  8  2F FF 40 06 3F 00 80 07 
   815)     13395.7  Rx         0708  8  20 21 00 02 0A 44 0F 28 
   816)     13398.4  Rx         0708  8  21 94 80 FF 3A 38 80 FF 
   817)     13401.5  Rx         0708  8  22 34 0C 80 FF 00 00 00 
   818)     13404.6  Rx         0700  8  10 08 23 15 01 00 00 11 
   819)     13407.2  Rx         0708  8  30 00 00 00 00 00 00 00 
   820)     13407.4  Rx         0700  8  21 80 80 00 00 00 00 00 
   821)     13411.7  Rx         0708  8  10 81 63 EE 4D 80 FF 44 
   822)     13412.0  Rx         0700  8  30 00 00 00 00 00 00 00 
   823)     13415.0  Rx         0708  8  21 41 80 FF EC 4D 80 FF 
   824)     13417.9  Rx         0708  8  22 CC 0D 80 FF EA 0D 80 
   825)     13421.0  Rx         0708  8  23 FF B2 0C 80 FF E4 3A 
   826)     13424.0  Rx         0708  8  24 80 FF D0 4D 80 FF 96 
   827)     13427.3  Rx         0708  8  25 0E 80 FF F8 39 80 FF 
   828)     13430.2  Rx         0708  8  26 E4 4B 80 FF F0 4D 80 
   829)     13433.2  Rx         0708  8  27 FF E0 4E 80 FF 1A 50 
   830)     13436.6  Rx         0708  8  28 80 FF 58 54 80 FF 1A 
   831)     13439.4  Rx         0708  8  29 55 BF FF 4E FF 40 06 
   832)     13442.4  Rx         0708  8  2A 3F 00 80 07 21 00 03 
   833)     13445.5  Rx         0708  8  2B 0A 44 0F 28 94 BF FF 
   834)     13449.0  Rx         0708  8  2C 48 FF 80 FF 32 4A 80 
   835)     13452.0  Rx         0708  8  2D FF A4 4E 80 FF D4 4F 
   836)     13455.5  Rx         0708  8  2E 80 FF 7C 54 80 FF EE 
   837)     13457.8  Rx         0708  8  2F 54 40 06 3F 00 80 07 
   838)     13461.5  Rx         0708  8  20 21 00 04 0A 44 0F 28 
   839)     13463.9  Rx         0708  8  21 94 BF FF 2E FF 80 FF 
   840)     13467.4  Rx         0708  8  22 DC 54 80 FF 00 00 00 
   841)     13469.4  Rx         0700  8  10 08 23 15 01 00 00 12 
   842)     13471.2  Rx         0708  8  30 00 00 00 00 00 00 00 
   843)     13471.4  Rx         0700  8  21 00 80 00 00 00 00 00 
   844)     13476.3  Rx         0708  8  10 81 63 5C 54 80 FF D6 
   845)     13476.5  Rx         0700  8  30 00 00 00 00 00 00 00 
   846)     13479.6  Rx         0708  8  21 4F 80 FF 94 4E 80 FF 
   847)     13482.4  Rx         0708  8  22 F0 4D 80 FF 9C 4B 80 
   848)     13485.7  Rx         0708  8  23 FF D0 39 80 FF FA 3C 
   849)     13488.5  Rx         0708  8  24 80 FF 4C 0E 80 FF 36 
   850)     13491.6  Rx         0708  8  25 0C 80 FF AC 0D 80 FF 
   851)     13494.7  Rx         0708  8  26 50 0D 80 FF C2 4D 80 
   852)     13498.1  Rx         0708  8  27 FF 0A 0C 80 FF 40 38 
   853)     13500.9  Rx         0708  8  28 40 06 3F 00 00 52 7F 
   854)     13504.2  Rx         0708  8  29 00 80 07 61 00 80 07 
   855)     13507.2  Rx         0708  8  2A 09 9E FB 7F 40 0E 01 
   856)     13510.0  Rx         0708  8  2B 00 01 EA E1 99 F1 1D 
   857)     13513.2  Rx         0708  8  2C 80 07 09 9E FB 7F 40 
   858)     13516.2  Rx         0708  8  2D 0E 40 00 E1 99 89 1D 
   859)     13519.2  Rx         0708  8  2E 80 07 09 0E FB 7F DE 
   860)     13522.8  Rx         0708  8  2F 0A BA 15 80 07 09 36 
   861)     13526.1  Rx         0708  8  20 FB 7F BF FF CA FF E0 
   862)     13530.0  Rx         0708  8  21 51 CA 0D 80 07 09 F6 
   863)     13532.6  Rx         0708  8  22 FB 7F 00 0D 00 00 00 
   864)     13538.1  Rx         0700  8  10 08 23 15 01 00 00 12 
   865)     13539.9  Rx         0708  8  30 00 00 00 00 00 00 00 
   866)     13540.2  Rx         0700  8  21 80 80 00 00 00 00 00 
   867)     13545.9  Rx         0708  8  10 81 63 7F 0A E2 05 80 
   868)     13546.2  Rx         0700  8  30 00 00 00 00 00 00 00 
   869)     13549.2  Rx         0708  8  21 FF B8 82 E0 51 E1 57 
   870)     13552.0  Rx         0708  8  22 14 EB 1D 50 40 06 7F 
   871)     13555.2  Rx         0708  8  23 00 82 07 61 00 05 0A 
   872)     13558.2  Rx         0708  8  24 44 0F 28 94 BF FF 92 
   873)     13562.1  Rx         0708  8  25 FE BF FF 9C FF E0 51 
   874)     13565.6  Rx         0708  8  26 D2 05 00 32 80 FF 2A 
   875)     13568.4  Rx         0708  8  27 AC D5 FD 80 FF D4 37 
   876)     13571.5  Rx         0708  8  28 25 F7 F9 39 00 ED 63 
   877)     13575.0  Rx         0708  8  29 EF 01 00 FD C7 60 F9 
   878)     13578.2  Rx         0708  8  2A 85 05 80 07 21 00 00 
   879)     13581.4  Rx         0708  8  2B 32 80 FF 0A AC BF FF 
   880)     13585.4  Rx         0708  8  2C 7A FE 24 0F 25 94 E0 
   881)     13587.9  Rx         0708  8  2D 09 D2 15 02 32 80 FF 
   882)     13591.2  Rx         0708  8  2E F8 AB BF FF 8A FE 0F 
   883)     13594.0  Rx         0708  8  2F 32 80 FF EE AB B5 05 
   884)     13597.3  Rx         0708  8  20 BF FF D8 FE 24 0F 25 
   885)     13600.2  Rx         0708  8  21 94 E0 09 BA FD 02 32 
   886)     13603.2  Rx         0708  8  22 80 FF DA AB 00 00 00 
   887)     13606.1  Rx         0700  8  10 08 23 15 01 00 00 13 
   888)     13608.6  Rx         0708  8  30 00 00 00 00 00 00 00 
   889)     13609.1  Rx         0700  8  21 00 80 00 00 00 00 00 
   890)     13611.4  Rx         0708  8  10 81 63 BF FF EC FE 00 
   891)     13611.7  Rx         0700  8  30 00 00 00 00 00 00 00 
   892)     13614.7  Rx         0708  8  21 32 80 FF D0 AB BF FF 
   893)     13618.0  Rx         0708  8  22 8A FF 85 05 80 07 21 
   894)     13620.6  Rx         0708  8  23 00 20 0E FF 00 64 0F 
   895)     13623.9  Rx         0708  8  24 01 94 01 0A 01 F0 C2 
   896)     13626.9  Rx         0708  8  25 F2 C4 F1 1F 9A 7E 9F 
   897)     13629.9  Rx         0708  8  26 01 94 41 0A 69 0A 86 
   898)     13632.9  Rx         0708  8  27 FD BF FF 96 FF 85 05 
   899)     13636.2  Rx         0708  8  28 85 05 06 F0 E0 41 87 
   900)     13639.0  Rx         0708  8  29 0D 00 0D 44 F2 67 0F 
   901)     13642.4  Rx         0708  8  2A 01 00 44 3A E8 06 0B 
   902)     13645.6  Rx         0708  8  2B 00 7F 00 80 07 21 00 
   903)     13648.6  Rx         0708  8  2C 24 3E 00 94 09 42 BF 
   904)     13651.4  Rx         0708  8  2D FF E0 FF BF FF 6A FF 
   905)     13654.4  Rx         0708  8  2E 85 05 85 05 80 07 21 
   906)     13657.6  Rx         0708  8  2F 00 80 FF 36 0C 80 FF 
   907)     13661.1  Rx         0708  8  20 90 4C 40 06 3F 00 80 
   908)     13663.6  Rx         0708  8  21 07 21 00 84 0F 29 94 
   909)     13667.4  Rx         0708  8  22 63 0A FA 05 00 00 00 
   910)     13671.3  Rx         0700  8  10 08 23 15 01 00 00 13 
   911)     13673.1  Rx         0708  8  30 00 00 00 00 00 00 00 
   912)     13673.4  Rx         0700  8  21 80 80 00 00 00 00 00 
   913)     13677.0  Rx         0708  8  10 81 63 80 FF 54 0A BF 
   914)     13677.2  Rx         0700  8  30 00 00 00 00 00 00 00 
   915)     13680.0  Rx         0708  8  21 FF 7C FD 80 FF D8 0F 
   916)     13683.3  Rx         0708  8  22 40 06 3F 00 80 07 61 
   917)     13686.1  Rx         0708  8  23 00 06 E8 9D 00 01 32 
   918)     13689.3  Rx         0708  8  24 80 FF CA AA 01 0A FD 
   919)     13692.6  Rx         0708  8  25 0F C2 98 24 F6 24 94 
   920)     13696.1  Rx         0708  8  26 00 0D 13 09 01 0D 80 
   921)     13698.4  Rx         0708  8  27 FF F4 AA 40 06 7F 00 
   922)     13701.8  Rx         0708  8  28 80 07 61 00 06 E8 9D 
   923)     13704.6  Rx         0708  8  29 00 01 32 80 FF A4 AA 
   924)     13708.1  Rx         0708  8  2A 01 0A FD 0F C2 08 21 
   925)     13711.1  Rx         0708  8  2B 98 24 F6 24 94 00 0D 
   926)     13714.2  Rx         0708  8  2C 53 09 01 0D 80 FF CC 
   927)     13717.2  Rx         0708  8  2D AA 40 06 7F 00 80 07 
   928)     13720.2  Rx         0708  8  2E 21 00 07 40 88 00 06 
   929)     13723.2  Rx         0708  8  2F 38 24 36 00 94 BF FF 
   930)     13726.3  Rx         0708  8  20 4C FF 40 06 3F 00 06 
   931)     13729.2  Rx         0708  8  21 F0 08 08 E0 41 87 0D 
   932)     13732.5  Rx         0708  8  22 60 98 41 F2 00 00 00 
   933)     13735.9  Rx         0700  8  10 08 23 15 01 00 00 14 
   934)     13738.1  Rx         0708  8  30 00 00 00 00 00 00 00 
   935)     13738.6  Rx         0700  8  21 00 80 00 00 00 00 00 
   936)     13743.0  Rx         0708  8  10 81 63 47 9F 00 00 41 
   937)     13743.3  Rx         0700  8  30 00 00 00 00 00 00 00 
   938)     13746.6  Rx         0708  8  21 3A E1 06 0B 00 E0 41 
   939)     13750.1  Rx         0708  8  22 C2 05 A7 0F FF FF 1C 
   940)     13753.2  Rx         0708  8  23 00 7F 00 80 07 21 00 
   941)     13756.6  Rx         0708  8  24 26 06 60 00 00 00 27 
   942)     13760.0  Rx         0708  8  25 06 00 00 F0 FE 00 42 
   943)     13763.2  Rx         0708  8  26 BF FF CC FF 80 FF 9C 
   944)     13766.4  Rx         0708  8  27 37 BF FF 18 FD 40 06 
   945)     13769.3  Rx         0708  8  28 3F 00 80 07 21 00 BF 
   946)     13772.2  Rx         0708  8  29 FF 00 FD 40 06 3F 00 
   947)     13775.3  Rx         0708  8  2A 06 0A 44 0F 28 94 7F 
   948)     13778.3  Rx         0708  8  2B 00 07 0A 44 0F 28 94 
   949)     13781.4  Rx         0708  8  2C 7F 00 86 00 87 00 07 
   950)     13785.1  Rx         0708  8  2D 08 C1 0A 06 F0 C1 F1 
   951)     13788.0  Rx         0708  8  2E 32 06 F0 FF EF FE C2 
   952)     13790.9  Rx         0708  8  2F F2 D2 F1 01 45 06 98 
   953)     13793.9  Rx         0708  8  20 C1 9A 07 08 D3 09 C2 
   954)     13797.0  Rx         0708  8  21 0A D2 09 21 0F 01 00 
   955)     13799.9  Rx         0708  8  22 E9 09 FA F5 00 00 00 
   956)     13802.0  Rx         0700  8  10 08 23 15 01 00 00 14 
   957)     13804.0  Rx         0708  8  30 00 00 00 00 00 00 00 
   958)     13804.2  Rx         0700  8  21 80 80 00 00 00 00 00 
   959)     13808.5  Rx         0708  8  10 81 63 40 0E 00 02 01 
   960)     13809.0  Rx         0700  8  30 00 00 00 00 00 00 00 
   961)     13812.1  Rx         0708  8  21 0D 7F 00 86 00 00 9A 
   962)     13815.6  Rx         0708  8  22 C5 0D 06 F0 C2 F2 C5 
   963)     13818.2  Rx         0708  8  23 F1 13 08 3E 97 8D 40 
   964)     13821.3  Rx         0708  8  24 C1 0A 41 9A D2 09 61 
   965)     13824.4  Rx         0708  8  25 07 00 00 25 0F 95 41 
   966)     13827.5  Rx         0708  8  26 06 F0 EC F7 40 02 C1 
   967)     13830.5  Rx         0708  8  27 F1 74 08 E1 99 D6 ED 
   968)     13833.6  Rx         0708  8  28 7F 00 86 00 06 F0 C2 
   969)     13836.9  Rx         0708  8  29 F2 00 52 C5 F1 3E 97 
   970)     13840.3  Rx         0708  8  2A 8D 40 0A 08 85 0D 01 
   971)     13843.1  Rx         0708  8  2B F0 C1 F2 D2 F1 41 0A 
   972)     13845.9  Rx         0708  8  2C 70 98 D3 51 CA 00 25 
   973)     13849.2  Rx         0708  8  2D 9F 95 41 06 F0 EC F7 
   974)     13852.0  Rx         0708  8  2E 40 02 D3 F1 74 98 5E 
   975)     13855.6  Rx         0708  8  2F 9A F3 09 86 F5 7F 00 
   976)     13858.3  Rx         0708  8  20 80 07 E1 F3 06 D8 9B 
   977)     13861.3  Rx         0708  8  21 00 FB EE 0C 00 25 0F 
   978)     13864.6  Rx         0708  8  22 95 41 C1 E9 00 00 00 
   979)     13867.3  Rx         0700  8  10 08 23 15 01 00 00 15 
   980)     13869.5  Rx         0708  8  30 00 00 00 00 00 00 00 
   981)     13870.2  Rx         0700  8  21 00 80 00 00 00 00 00 
   982)     13874.1  Rx         0708  8  10 81 63 1D F0 00 CD 02 
   983)     13874.3  Rx         0700  8  30 00 00 00 00 00 00 00 
   984)     13877.9  Rx         0708  8  21 BD 80 FF 4A 08 19 30 
   985)     13880.9  Rx         0708  8  22 01 3A 80 FF C4 06 25 
   986)     13884.1  Rx         0708  8  23 C7 9D 41 80 FF 3A 08 
   987)     13886.9  Rx         0708  8  24 0A D0 17 30 80 FF 22 
   988)     13890.0  Rx         0708  8  25 43 E0 51 DA 25 1D F0 
   989)     13893.0  Rx         0708  8  26 6A C0 74 B0 19 30 1B 
   990)     13896.3  Rx         0708  8  27 F0 C2 F2 C5 F1 0A 38 
   991)     13899.1  Rx         0708  8  28 3E D7 8D 40 80 FF 98 
   992)     13902.5  Rx         0708  8  29 06 1B 30 BF FF 78 FF 
   993)     13905.3  Rx         0708  8  2A 16 E8 C1 EA DA E9 20 
   994)     13908.6  Rx         0708  8  2B 0E 5A A5 3D F6 FC FF 
   995)     13911.5  Rx         0708  8  2C 18 30 80 54 1A 38 81 
   996)     13915.3  Rx         0708  8  2D 0C 1A 40 16 48 80 FF 
   997)     13918.7  Rx         0708  8  2E B0 3C 25 CF A1 41 80 
   998)     13922.1  Rx         0708  8  2F FF EA 07 0A D0 E5 15 
   999)     13925.1  Rx         0708  8  20 80 FF E2 07 BA 51 F8 
  1000)     13928.1  Rx         0708  8  21 51 B3 D5 01 E2 19 30 
  1001)     13931.7  Rx         0708  8  22 00 3A 80 FF 00 00 00 
  1002)     13934.1  Rx         0700  8  10 08 23 15 01 00 00 15 
  1003)     13936.0  Rx         0708  8  30 00 00 00 00 00 00 00 
  1004)     13936.3  Rx         0700  8  21 80 80 00 00 00 00 00 
  1005)     13939.1  Rx         0708  8  10 81 63 54 06 C5 25 80 
  1006)     13939.4  Rx         0700  8  30 00 00 00 00 00 00 00 
  1007)     13942.4  Rx         0708  8  21 FF CC 07 BA 51 F9 51 
  1008)     13945.5  Rx         0708  8  22 E3 05 18 30 80 FF 06 
  1009)     13948.3  Rx         0708  8  23 3D 01 E2 A5 1D 18 30 
  1010)     13951.4  Rx         0708  8  24 80 FF B8 3C E0 51 AA 
  1011)     13955.0  Rx         0708  8  25 F5 17 30 80 FF 16 06 
  1012)     13957.5  Rx         0708  8  26 E0 51 D2 ED FD 0F FF 
  1013)     13960.6  Rx         0708  8  27 FF 01 06 5B A5 E2 07 
  1014)     13963.7  Rx         0708  8  28 14 E3 9A 0D 1B 30 BF 
  1015)     13967.6  Rx         0708  8  29 FF FC FE FD 0F FD FF 
  1016)     13970.9  Rx         0708  8  2A EA 09 E3 E7 14 E3 C4 
  1017)     13974.2  Rx         0708  8  2B D9 1C 50 5B 07 75 98 
  1018)     13977.0  Rx         0708  8  2C 40 06 FF F3 80 07 E1 
  1019)     13980.2  Rx         0708  8  2D 10 06 E8 9D 00 FD F6 
  1020)     13983.1  Rx         0708  8  2E 0C 00 25 0F 95 41 C1 
  1021)     13986.2  Rx         0708  8  2F F1 02 DD 00 E5 1B 30 
  1022)     13989.4  Rx         0708  8  20 80 FF 1A 41 1C 30 01 
  1023)     13992.4  Rx         0708  8  21 3A 80 FF DC 05 08 32 
  1024)     13995.5  Rx         0708  8  22 80 FF 08 A9 00 00 00 
  1025)     14000.9  Rx         0700  8  10 08 23 15 01 00 00 16 
  1026)     14002.6  Rx         0708  8  30 00 00 00 00 00 00 00 
  1027)     14002.9  Rx         0700  8  21 00 80 00 00 00 00 00 
  1028)     14009.2  Rx         0708  8  10 81 63 1B 30 80 FF 58 
  1029)     14009.5  Rx         0700  8  30 00 00 00 00 00 00 00 
  1030)     14012.9  Rx         0708  8  21 42 1C 30 00 3A 80 FF 
  1031)     14015.9  Rx         0708  8  22 C8 05 C4 E9 01 0A 5D 
  1032)     14019.2  Rx         0708  8  23 0F 75 98 03 0A 5D 0F 
  1033)     14022.2  Rx         0708  8  24 76 98 40 06 FF 10 80 
  1034)     14026.1  Rx         0708  8  25 07 E1 30 06 E0 9C 00 
  1035)     14029.3  Rx         0708  8  26 1C D8 C4 D9 BB 0F 75 
  1036)     14032.5  Rx         0708  8  27 98 3B DE 75 98 62 0A 
  1037)     14035.4  Rx         0708  8  28 AA 2D FC EE 0C 00 1C 
  1038)     14038.6  Rx         0708  8  29 F0 25 0F 95 41 C2 F2 
  1039)     14042.1  Rx         0708  8  2A C5 F1 3E D7 8D 40 C1 
  1040)     14044.6  Rx         0708  8  2B E9 9D 37 0B 00 80 FF 
  1041)     14047.9  Rx         0708  8  2C 02 3C E0 51 AA 1D FD 
  1042)     14051.1  Rx         0708  8  2D EF 09 00 C1 EA DA E9 
  1043)     14053.9  Rx         0708  8  2E FD 0F FF FF 01 06 5B 
  1044)     14057.2  Rx         0708  8  2F A5 B2 05 01 0A 95 0D 
  1045)     14060.0  Rx         0708  8  20 1C 30 BF FF 48 FE FD 
  1046)     14063.0  Rx         0708  8  21 9F FD FF EA 99 E2 07 
  1047)     14066.1  Rx         0708  8  22 14 0B 1C F0 00 00 00 
  1048)     14078.2  Rx         0700  8  10 08 23 15 01 00 00 16 
  1049)     14080.5  Rx         0708  8  30 00 00 00 00 00 00 00 
  1050)     14081.0  Rx         0700  8  21 80 80 00 00 00 00 00 
  1051)     14083.5  Rx         0708  8  10 81 63 C4 F1 5E 0F 76 
  1052)     14084.0  Rx         0700  8  30 00 00 00 00 00 00 00 
  1053)     14087.1  Rx         0708  8  21 98 5B 07 00 00 C4 E1 
  1054)     14089.9  Rx         0708  8  22 9C 57 77 98 40 06 FF 
  1055)     14093.0  Rx         0708  8  23 30 80 07 61 00 86 00 
  1056)     14096.1  Rx         0708  8  24 06 E8 C4 E9 BD 0F 75 
  1057)     14098.9  Rx         0708  8  25 98 3D EE 75 98 E0 09 
  1058)     14102.3  Rx         0708  8  26 C2 0D 25 0F 95 41 06 
  1059)     14105.5  Rx         0708  8  27 F0 EC F7 40 02 C1 F1 
  1060)     14108.1  Rx         0708  8  28 6A 30 80 FF DE 3B 5D 
  1061)     14111.2  Rx         0708  8  29 07 00 00 40 06 7F 00 
  1062)     14114.7  Rx         0708  8  2A 80 07 21 00 06 F0 9E 
  1063)     14117.3  Rx         0708  8  2B 00 EC F7 40 02 25 0F 
  1064)     14120.5  Rx         0708  8  2C 95 41 C1 F1 02 35 80 
  1065)     14123.5  Rx         0708  8  2D FF 68 41 40 06 3F 00 
  1066)     14127.1  Rx         0708  8  2E 80 07 E1 00 00 EA 85 
  1067)     14129.6  Rx         0708  8  2F 1D 25 0F 95 41 1D E0 
  1068)     14132.9  Rx         0708  8  20 EC E7 40 02 00 3A C1 
  1069)     14135.8  Rx         0708  8  21 E1 3C 37 01 00 80 FF 
  1070)     14139.4  Rx         0708  8  22 D8 04 3C 37 00 00 00 
  1071)     14142.7  Rx         0700  8  10 08 23 15 01 00 00 17 
  1072)     14145.4  Rx         0708  8  30 00 00 00 00 00 00 00 
  1073)     14145.9  Rx         0700  8  21 00 80 00 00 00 00 00 
  1074)     14152.3  Rx         0708  8  10 81 63 05 00 80 FF 66 
  1075)     14152.6  Rx         0700  8  30 00 00 00 00 00 00 00 
  1076)     14155.4  Rx         0708  8  21 41 1D F0 C4 F1 5E 07 
  1077)     14158.2  Rx         0708  8  22 75 98 03 0A 5E 0F 76 
  1078)     14161.7  Rx         0708  8  23 98 41 EA 85 0F A5 41 
  1079)     14164.6  Rx         0708  8  24 E1 E9 E6 E5 40 06 FF 
  1080)     14167.7  Rx         0708  8  25 00 80 07 E1 10 06 F0 
  1081)     14170.5  Rx         0708  8  26 60 E8 1D D8 C4 D9 BB 
  1082)     14174.1  Rx         0708  8  27 0F 75 98 3B DE 75 98 
  1083)     14177.0  Rx         0708  8  28 61 0A 9A 25 FD E6 0C 
  1084)     14180.3  Rx         0708  8  29 00 1D F0 25 0F 95 41 
  1085)     14183.1  Rx         0708  8  2A C2 F2 C5 F1 1D 30 3E 
  1086)     14186.4  Rx         0708  8  2B 3F 8D 40 C1 E1 FC 4F 
  1087)     14189.3  Rx         0708  8  2C 09 00 BF FF 64 FD 09 
  1088)     14192.1  Rx         0708  8  2D 08 C1 0A 9C 37 0B 00 
  1089)     14195.4  Rx         0708  8  2E C7 09 21 F6 FC FF 20 
  1090)     14198.4  Rx         0708  8  2F 9E 5A A5 80 54 07 40 
  1091)     14201.3  Rx         0708  8  20 81 9C 80 FF 9E 3A 02 
  1092)     14204.3  Rx         0708  8  21 0A 5B 0F 00 00 25 0F 
  1093)     14207.4  Rx         0708  8  22 95 41 1D F0 00 00 00 
  1094)     14211.0  Rx         0700  8  10 08 23 15 01 00 00 17 
  1095)     14212.8  Rx         0708  8  30 00 00 00 00 00 00 00 
  1096)     14213.1  Rx         0700  8  21 80 80 00 00 00 00 00 
  1097)     14217.9  Rx         0708  8  10 81 63 EC F7 40 02 C1 
  1098)     14218.1  Rx         0700  8  30 00 00 00 00 00 00 00 
  1099)     14221.2  Rx         0708  8  21 F1 02 35 80 FF E0 40 
  1100)     14223.8  Rx         0708  8  22 40 06 FF 10 03 1E EC 
  1101)     14227.4  Rx         0708  8  23 FF 87 00 00 9A 13 08 
  1102)     14230.0  Rx         0708  8  24 01 90 C2 92 92 07 09 
  1103)     14233.3  Rx         0708  8  25 95 01 9A 63 97 01 00 
  1104)     14236.1  Rx         0708  8  26 00 92 03 88 D2 89 91 
  1105)     14239.1  Rx         0708  8  27 8F 01 00 13 F0 C3 F1 
  1106)     14242.5  Rx         0708  8  28 41 9A 41 92 93 00 64 
  1107)     14245.9  Rx         0708  8  29 92 84 8B D6 F5 41 0A 
  1108)     14248.3  Rx         0708  8  2A 64 0A A6 ED 00 0A A5 
  1109)     14251.6  Rx         0708  8  2B 0D 23 9E 04 00 01 F0 
  1110)     14254.5  Rx         0708  8  2C C1 99 C6 F1 93 9F 01 
  1111)     14257.6  Rx         0708  8  2D 00 41 0A 80 9B E7 09 
  1112)     14261.3  Rx         0708  8  2E E6 F5 03 1E 14 00 7F 
  1113)     14263.9  Rx         0708  8  2F 00 80 07 61 00 06 E8 
  1114)     14267.1  Rx         0708  8  20 01 32 80 FF 74 A6 C2 
  1115)     14270.3  Rx         0708  8  21 EA 80 FF CC 00 1D 38 
  1116)     14273.4  Rx         0708  8  22 00 32 80 FF 00 00 00 
  1117)     14316.7  Rx         0700  8  10 08 23 15 01 00 00 18 
  1118)     14319.1  Rx         0708  8  30 00 00 00 00 00 00 00 
  1119)     14319.4  Rx         0700  8  21 00 80 00 00 00 00 00 
  1120)     14324.1  Rx         0708  8  10 81 63 E0 00 1D 38 01 
  1121)     14324.4  Rx         0700  8  30 00 00 00 00 00 00 00 
  1122)     14327.4  Rx         0708  8  21 32 80 FF D8 00 80 FF 
  1123)     14330.3  Rx         0708  8  22 98 A6 40 06 7F 00 80 
  1124)     14333.5  Rx         0708  8  23 07 21 00 01 32 80 FF 
  1125)     14336.7  Rx         0708  8  24 4C A6 01 32 80 FF 30 
  1126)     14339.6  Rx         0708  8  25 01 00 32 80 FF 2A 01 
  1127)     14343.3  Rx         0708  8  26 80 FF A8 00 80 FF 76 
  1128)     14346.8  Rx         0708  8  27 A6 40 06 3F 00 80 07 
  1129)     14350.0  Rx         0708  8  28 21 00 01 32 80 FF 2A 
  1130)     14352.8  Rx         0708  8  29 A6 80 FF 46 00 80 FF 
  1131)     14355.9  Rx         0708  8  2A 60 A6 40 06 3F 00 80 
  1132)     14359.2  Rx         0708  8  2B 07 21 00 01 32 80 FF 
  1133)     14362.3  Rx         0708  8  2C 14 A6 80 FF 56 00 80 
  1134)     14365.1  Rx         0708  8  2D FF 4A A6 40 06 3F 00 
  1135)     14368.9  Rx         0708  8  2E 80 07 21 00 25 36 14 
  1136)     14372.5  Rx         0708  8  2F 40 00 3A 80 FF AA 1F 
  1137)     14375.3  Rx         0708  8  20 40 06 3F 00 80 07 21 
  1138)     14378.6  Rx         0708  8  21 00 25 36 1C 40 00 3A 
  1139)     14381.6  Rx         0708  8  22 80 FF 98 1F 00 00 00 
  1140)     14384.1  Rx         0700  8  10 08 23 15 01 00 00 18 
  1141)     14385.9  Rx         0708  8  30 00 00 00 00 00 00 00 
  1142)     14386.1  Rx         0700  8  21 80 80 00 00 00 00 00 
  1143)     14389.8  Rx         0708  8  10 81 63 40 06 3F 00 40 
  1144)     14390.3  Rx         0700  8  30 00 00 00 00 00 00 00 
  1145)     14392.7  Rx         0708  8  21 F6 E6 FF 70 08 C1 0E 
  1146)     14395.8  Rx         0708  8  22 FD FF 80 0C 00 0A 80 
  1147)     14399.0  Rx         0708  8  23 07 0F 0A 04 CC 80 07 
  1148)     14402.2  Rx         0708  8  24 09 0A 04 CC 1F 00 70 
  1149)     14405.1  Rx         0708  8  25 08 81 0E 02 00 80 0C 
  1150)     14408.1  Rx         0708  8  26 7F 00 40 F6 E6 FF 70 
  1151)     14411.6  Rx         0708  8  27 08 C1 0E FD FF 80 0C 
  1152)     14414.2  Rx         0708  8  28 1E F6 20 02 01 05 00 
  1153)     14417.3  Rx         0708  8  29 0D 1F 00 7F 00 40 F6 
  1154)     14420.6  Rx         0708  8  2A E6 FF 70 08 81 0E 80 
  1155)     14423.4  Rx         0708  8  2B 00 80 0C 7F 00 40 F6 
  1156)     14426.8  Rx         0708  8  2C E6 FF 70 08 C1 0E 7F 
  1157)     14429.8  Rx         0708  8  2D FF 80 0C 7F 00 80 07 
  1158)     14432.9  Rx         0708  8  2E E1 10 06 E8 9D 00 07 
  1159)     14436.0  Rx         0708  8  2F D8 1D F0 C1 F2 C5 F1 
  1160)     14439.1  Rx         0708  8  20 68 EA FE E7 59 38 E9 
  1161)     14441.9  Rx         0708  8  21 05 26 06 00 39 E6 FF 
  1162)     14445.2  Rx         0708  8  22 1D 38 F5 05 00 00 00 
  1163)     14449.0  Rx         0700  8  10 08 23 15 01 00 00 19 
  1164)     14451.1  Rx         0708  8  30 00 00 00 00 00 00 00 
  1165)     14451.4  Rx         0700  8  21 00 80 00 00 00 00 00 
  1166)     14455.3  Rx         0708  8  10 81 63 1D 3E F8 FF 26 
  1167)     14455.5  Rx         0700  8  30 00 00 00 00 00 00 00 
  1168)     14458.3  Rx         0708  8  21 06 01 39 E6 FF 87 00 
  1169)     14461.3  Rx         0708  8  22 80 FF D8 03 1D 08 C4 
  1170)     14464.6  Rx         0708  8  23 0A 81 07 4F 01 72 CC 
  1171)     14468.2  Rx         0708  8  24 81 07 8F D9 72 CC 1C 
  1172)     14471.7  Rx         0708  8  25 30 80 FF D4 24 1C 30 
  1173)     14475.3  Rx         0708  8  26 01 3A 80 FF 22 25 68 
  1174)     14477.8  Rx         0708  8  27 EA D9 05 26 06 00 39 
  1175)     14481.3  Rx         0708  8  28 E6 FF E5 05 58 EA 26 
  1176)     14483.9  Rx         0708  8  29 06 01 39 E6 FF 9D 00 
  1177)     14487.0  Rx         0708  8  2A 1D 38 80 FF 98 03 40 
  1178)     14490.0  Rx         0708  8  2B 06 FF 10 80 07 E1 00 
  1179)     14493.1  Rx         0708  8  2C 06 E8 9D 00 1D F0 C1 
  1180)     14496.4  Rx         0708  8  2D F2 C5 F1 68 EA FE E7 
  1181)     14499.4  Rx         0708  8  2E 59 38 E9 05 26 06 00 
  1182)     14502.3  Rx         0708  8  2F 39 E6 FF 1D 38 F5 05 
  1183)     14505.4  Rx         0708  8  20 1D 3E F8 FF 26 06 01 
  1184)     14508.5  Rx         0708  8  21 39 E6 FF 87 00 80 FF 
  1185)     14511.6  Rx         0708  8  22 6A 03 1C 30 00 00 00 
  1186)     14514.5  Rx         0700  8  10 08 23 15 01 00 00 19 
  1187)     14516.7  Rx         0708  8  30 00 00 00 00 00 00 00 
  1188)     14516.9  Rx         0700  8  21 80 80 00 00 00 00 00 
  1189)     14521.0  Rx         0708  8  10 81 63 00 3A 80 FF CA 
  1190)     14521.5  Rx         0700  8  30 00 00 00 00 00 00 00 
  1191)     14525.0  Rx         0708  8  21 24 1C 30 80 FF 6E 24 
  1192)     14528.1  Rx         0708  8  22 C4 EA 1F 0A 9D 07 8F 
  1193)     14531.8  Rx         0708  8  23 09 72 CC 9D 07 4F 01 
  1194)     14535.1  Rx         0708  8  24 72 CC 40 06 FF 00 80 
  1195)     14538.6  Rx         0708  8  25 07 21 00 02 32 80 FF 
  1196)     14541.2  Rx         0708  8  26 30 A5 BF FF 9A FA 80 
  1197)     14544.3  Rx         0708  8  27 FF 14 06 85 05 80 07 
  1198)     14547.3  Rx         0708  8  28 21 00 02 32 80 FF 1C 
  1199)     14550.9  Rx         0708  8  29 A5 BF FF 8E FA 85 05 
  1200)     14554.0  Rx         0708  8  2A 21 06 00 05 00 00 3E 
  1201)     14557.0  Rx         0708  8  2B 06 00 13 F0 FE 20 9E 
  1202)     14559.8  Rx         0708  8  2C 80 00 21 97 01 00 01 
  1203)     14563.2  Rx         0708  8  2D 95 44 F2 44 0A F3 06 
  1204)     14566.3  Rx         0708  8  2E 0B 00 3E 0F FD FF 1C 
  1205)     14568.9  Rx         0708  8  2F 00 31 06 00 18 F0 FE 
  1206)     14572.0  Rx         0708  8  20 21 06 00 04 00 00 11 
  1207)     14575.1  Rx         0708  8  21 F0 C5 0D 00 92 12 98 
  1208)     14578.1  Rx         0708  8  22 C2 9A C1 99 00 00 00 
  1209)     14580.2  Rx         0700  8  10 08 23 15 01 00 00 1A 
  1210)     14582.2  Rx         0708  8  30 00 00 00 00 00 00 00 
  1211)     14582.5  Rx         0700  8  21 00 80 00 00 00 00 00 
  1212)     14586.3  Rx         0708  8  10 81 63 41 92 33 9F 01 
  1213)     14586.6  Rx         0700  8  30 00 00 00 00 00 00 00 
  1214)     14589.3  Rx         0708  8  21 00 01 9D 44 F2 64 92 
  1215)     14592.7  Rx         0708  8  22 F6 F5 11 9E 00 01 F3 
  1216)     14595.9  Rx         0708  8  23 F1 A1 F5 3E 0F FD FF 
  1217)     14598.6  Rx         0708  8  24 1C 00 7F 00 80 07 61 
  1218)     14602.0  Rx         0708  8  25 00 3E 06 00 80 A0 FF 
  1219)     14605.0  Rx         0708  8  26 20 0E B3 FF 9E 07 0D 
  1220)     14607.8  Rx         0708  8  27 08 00 03 BE 07 05 08 
  1221)     14610.9  Rx         0708  8  28 00 03 1F 00 80 FF 16 
  1222)     14614.3  Rx         0708  8  29 03 0A E8 B5 0D 80 FF 
  1223)     14617.0  Rx         0708  8  2A 0E 03 BD 51 0A 06 A7 
  1224)     14620.1  Rx         0708  8  2B FF D9 05 00 32 80 FF 
  1225)     14623.1  Rx         0708  8  2C 86 A4 85 05 40 5E A1 
  1226)     14627.0  Rx         0708  8  2D FF CB FF 81 00 A2 F5 
  1227)     14630.3  Rx         0708  8  2E 40 06 7F 00 80 07 E1 
  1228)     14633.6  Rx         0708  8  2F 00 3D 06 00 80 A0 FF 
  1229)     14636.9  Rx         0708  8  20 BD 07 47 08 01 01 E0 
  1230)     14639.6  Rx         0708  8  21 09 F2 0D 01 32 80 FF 
  1231)     14642.6  Rx         0708  8  22 EA A3 20 0E 00 00 00 
  1232)     14647.1  Rx         0700  8  10 08 23 15 01 00 00 1A 
  1233)     14649.2  Rx         0708  8  30 00 00 00 00 00 00 00 
  1234)     14649.5  Rx         0700  8  21 80 80 00 00 00 00 00 
  1235)     14656.9  Rx         0708  8  10 81 63 00 AA BD 07 4D 
  1236)     14657.2  Rx         0700  8  30 00 00 00 00 00 00 00 
  1237)     14660.2  Rx         0708  8  21 08 01 01 BD 07 47 08 
  1238)     14663.1  Rx         0708  8  22 01 01 1C 00 80 FF 12 
  1239)     14666.1  Rx         0708  8  23 A4 20 0E 03 C4 BD 07 
  1240)     14669.2  Rx         0708  8  24 4D 0D 00 01 BD 07 47 
  1241)     14672.8  Rx         0708  8  25 0D 00 01 1C 00 01 32 
  1242)     14675.4  Rx         0708  8  26 80 FF BC A3 26 06 00 
  1243)     14678.4  Rx         0708  8  27 18 F0 FE 80 FF 8C 02 
  1244)     14681.7  Rx         0708  8  28 25 E7 6D 38 FC C7 60 
  1245)     14685.0  Rx         0708  8  29 F9 26 06 00 08 00 00 
  1246)     14687.8  Rx         0708  8  2A 80 FF 7A 02 20 0E 00 
  1247)     14691.3  Rx         0708  8  2B C4 BD 07 4D 0D 00 01 
  1248)     14694.0  Rx         0708  8  2C BD 07 47 0D 00 01 1C 
  1249)     14697.2  Rx         0708  8  2D 00 20 0E 80 AA BD 07 
  1250)     14700.0  Rx         0708  8  2E 4D 08 01 01 BD 07 47 
  1251)     14703.3  Rx         0708  8  2F 08 01 01 1C 00 BF FF 
  1252)     14706.1  Rx         0708  8  20 32 FF 20 0E 00 AA BD 
  1253)     14709.1  Rx         0708  8  21 07 4D 08 01 01 BD 07 
  1254)     14712.5  Rx         0708  8  22 47 08 01 01 00 00 00 
  1255)     14715.1  Rx         0700  8  10 08 23 15 01 00 00 1B 
  1256)     14717.9  Rx         0708  8  30 00 00 00 00 00 00 00 
  1257)     14718.1  Rx         0700  8  21 00 80 00 00 00 00 00 
  1258)     14722.2  Rx         0708  8  10 81 63 1F 00 1C 00 80 
  1259)     14722.7  Rx         0700  8  30 00 00 00 00 00 00 00 
  1260)     14725.8  Rx         0708  8  21 FF 9E A3 40 06 FF 00 
  1261)     14729.3  Rx         0708  8  22 3E 06 00 80 A0 FF 1F 
  1262)     14731.9  Rx         0708  8  23 0A 01 0D 03 0D 05 0D 
  1263)     14734.8  Rx         0708  8  24 07 0D 06 0D 1F 00 7F 
  1264)     14737.9  Rx         0708  8  25 00 80 07 61 00 25 EF 
  1265)     14741.1  Rx         0708  8  26 71 38 FD C7 60 F9 40 
  1266)     14744.0  Rx         0708  8  27 06 7F 00 F8 0F 40 68 
  1267)     14747.2  Rx         0708  8  28 D8 32 FA 1D 1E 9A 53 
  1268)     14750.4  Rx         0708  8  29 09 E1 C7 20 68 F8 0F 
  1269)     14753.4  Rx         0708  8  2A 40 20 53 09 E1 C7 20 
  1270)     14756.2  Rx         0708  8  2B 20 F8 0F 40 68 81 0E 
  1271)     14759.5  Rx         0708  8  2C 02 00 E1 C7 20 68 F8 
  1272)     14763.4  Rx         0708  8  2D 0F 40 68 82 0A D1 FD 
  1273)     14766.5  Rx         0708  8  2E F8 0F 40 20 81 0E 00 
  1274)     14770.0  Rx         0708  8  2F 01 E1 C7 20 20 F8 0F 
  1275)     14772.9  Rx         0708  8  20 40 20 89 0A D1 FD F5 
  1276)     14775.9  Rx         0708  8  21 1D 81 0E 02 00 E1 C7 
  1277)     14779.1  Rx         0708  8  22 20 68 F8 0F 00 00 00 
  1278)     14788.4  Rx         0700  8  10 08 23 15 01 00 00 1B 
  1279)     14790.1  Rx         0708  8  30 00 00 00 00 00 00 00 
  1280)     14790.4  Rx         0700  8  21 80 80 00 00 00 00 00 
  1281)     14795.3  Rx         0708  8  10 81 63 40 68 82 0A D1 
  1282)     14795.8  Rx         0700  8  30 00 00 00 00 00 00 00 
  1283)     14798.3  Rx         0708  8  21 FD F8 0F 40 20 81 0E 
  1284)     14801.3  Rx         0708  8  22 00 01 E1 C7 20 20 F8 
  1285)     14804.4  Rx         0708  8  23 0F 40 20 89 0A D1 FD 
  1286)     14807.5  Rx         0708  8  24 F8 0F 40 68 81 0E 01 
  1287)     14810.5  Rx         0708  8  25 00 E1 C7 20 68 F8 0F 
  1288)     14813.8  Rx         0708  8  26 40 20 81 0E 01 00 E1 
  1289)     14816.9  Rx         0708  8  27 C7 20 20 F8 0F 40 20 
  1290)     14820.1  Rx         0708  8  28 1C 00 7F 00 80 07 61 
  1291)     14822.9  Rx         0708  8  29 00 06 E8 C6 00 80 FF 
  1292)     14826.1  Rx         0708  8  2A 32 01 9F EA FD 51 E2 
  1293)     14829.0  Rx         0708  8  2B 57 00 00 40 06 7F 00 
  1294)     14832.1  Rx         0708  8  2C 80 07 21 00 87 00 06 
  1295)     14835.3  Rx         0708  8  2D 08 9F 0A E1 39 C6 00 
  1296)     14838.2  Rx         0708  8  2E E2 3F 00 00 80 FF 3E 
  1297)     14841.4  Rx         0708  8  2F 01 40 06 3F 00 7F 00 
  1298)     14845.5  Rx         0708  8  20 7F 00 07 F0 86 00 9E 
  1299)     14848.9  Rx         0708  8  21 00 C4 32 C6 F1 C2 F2 
  1300)     14851.5  Rx         0708  8  22 21 06 00 20 00 00 00 
  1301)     14854.1  Rx         0700  8  10 08 23 15 01 00 00 1C 
  1302)     14856.3  Rx         0708  8  30 00 00 00 00 00 00 00 
  1303)     14856.5  Rx         0700  8  21 00 80 00 00 00 00 00 
  1304)     14861.0  Rx         0708  8  10 81 63 61 FF C1 F1 00 
  1305)     14861.5  Rx         0700  8  30 00 00 00 00 00 00 00 
  1306)     14864.8  Rx         0708  8  21 55 D3 52 9F 52 7F 00 
  1307)     14868.1  Rx         0708  8  22 80 07 E1 00 86 00 08 
  1308)     14871.0  Rx         0708  8  23 E0 9C 00 07 E8 9D 00 
  1309)     14874.2  Rx         0708  8  24 C4 32 C6 E9 01 32 80 
  1310)     14877.1  Rx         0708  8  25 FF 44 A2 21 06 00 20 
  1311)     14880.4  Rx         0708  8  26 61 FF 1D F0 C2 F2 C1 
  1312)     14883.2  Rx         0708  8  27 F1 00 0D 20 9E FF EF 
  1313)     14886.5  Rx         0708  8  28 CC E2 53 09 1C 09 01 
  1314)     14889.4  Rx         0708  8  29 0D 80 FF 64 A2 40 06 
  1315)     14892.4  Rx         0708  8  2A FF 00 07 F0 86 00 9E 
  1316)     14895.5  Rx         0708  8  2B 00 C4 32 C6 F1 C2 F2 
  1317)     14898.8  Rx         0708  8  2C 21 06 00 20 61 FF C1 
  1318)     14901.7  Rx         0708  8  2D F1 00 55 D7 52 9F 52 
  1319)     14905.4  Rx         0708  8  2E 7F 00 07 F0 86 00 9E 
  1320)     14908.3  Rx         0708  8  2F 00 88 97 05 00 C4 32 
  1321)     14910.9  Rx         0708  8  20 28 9F 01 00 C6 F1 C2 
  1322)     14914.2  Rx         0708  8  21 F2 21 06 00 20 61 FF 
  1323)     14917.0  Rx         0708  8  22 C1 F1 61 92 00 00 00 
  1324)     14923.0  Rx         0700  8  10 08 23 15 01 00 00 1C 
  1325)     14925.3  Rx         0708  8  30 00 00 00 00 00 00 00 
  1326)     14925.5  Rx         0700  8  21 80 80 00 00 00 00 00 
  1327)     14930.6  Rx         0708  8  10 81 63 00 0D AA 0D 40 
  1328)     14931.6  Rx         0700  8  30 00 00 00 00 00 00 00 
  1329)     14934.5  Rx         0708  8  21 96 0C 00 31 06 BF FF 
  1330)     14937.8  Rx         0708  8  22 F3 FF 53 91 51 09 12 
  1331)     14941.2  Rx         0708  8  23 09 B5 0D 32 06 00 10 
  1332)     14944.0  Rx         0708  8  24 00 40 31 06 FF EF FF 
  1333)     14946.8  Rx         0708  8  25 BF 53 91 51 09 12 09 
  1334)     14949.8  Rx         0708  8  26 01 0D 20 96 BF FF 20 
  1335)     14952.9  Rx         0708  8  27 8E C8 FF 52 09 01 0D 
  1336)     14956.1  Rx         0708  8  28 D3 96 37 00 51 09 12 
  1337)     14959.0  Rx         0708  8  29 09 01 0D 01 9D 7F 00 
  1338)     14962.4  Rx         0708  8  2A 66 36 04 00 66 1F 01 
  1339)     14965.4  Rx         0708  8  2B 00 06 18 7F 00 23 1F 
  1340)     14968.2  Rx         0708  8  2C 01 00 7F 00 06 18 7F 
  1341)     14971.5  Rx         0708  8  2D 00 03 50 7F 00 E6 3F 
  1342)     14974.9  Rx         0708  8  2E E0 00 7F 00 E6 3F E4 
  1343)     14978.1  Rx         0708  8  2F 00 7F 00 E0 37 62 53 
  1344)     14981.5  Rx         0708  8  20 0A 56 FF FF 7F 00 80 
  1345)     14984.8  Rx         0708  8  21 07 21 00 C6 00 06 38 
  1346)     14987.8  Rx         0708  8  22 87 00 A8 32 00 00 00 
  1347)     14990.0  Rx         0700  8  10 08 23 15 01 00 00 1D 
  1348)     14991.8  Rx         0708  8  30 00 00 00 00 00 00 00 
  1349)     14992.1  Rx         0700  8  21 00 80 00 00 00 00 00 
  1350)     14995.9  Rx         0708  8  10 81 63 01 0A 06 F0 C1 
  1351)     14996.2  Rx         0700  8  30 00 00 00 00 00 00 00 
  1352)     14998.9  Rx         0708  8  21 F2 C5 F1 E7 0F C2 98 
  1353)     15002.1  Rx         0708  8  22 FE 0F 59 41 53 09 C2 
  1354)     15005.5  Rx         0708  8  23 05 BF FF 32 FF B5 05 
  1355)     15008.2  Rx         0708  8  24 BF FF D6 FE 40 06 3F 
  1356)     15011.3  Rx         0708  8  25 00 80 07 21 00 07 40 
  1357)     15014.6  Rx         0708  8  26 C6 00 88 00 06 38 87 
  1358)     15017.4  Rx         0708  8  27 00 A8 32 BF FF DA FE 
  1359)     15020.5  Rx         0708  8  28 40 06 3F 00 7F 00 7F 
  1360)     15023.5  Rx         0708  8  29 00 86 0E 01 00 E0 07 
  1361)     15026.8  Rx         0708  8  2A 60 01 E1 1F 20 08 E0 
  1362)     15029.7  Rx         0708  8  2B 87 60 01 7F 00 80 07 
  1363)     15033.0  Rx         0708  8  2C 09 52 04 CC 7F 00 80 
  1364)     15036.0  Rx         0708  8  2D 07 E1 30 06 E8 07 E0 
  1365)     15039.1  Rx         0708  8  2E 9D 00 08 D8 DC 00 09 
  1366)     15041.9  Rx         0708  8  2F D0 01 32 80 FF FA A0 
  1367)     15045.3  Rx         0708  8  20 BF FF E2 FF F0 E7 42 
  1368)     15048.1  Rx         0708  8  21 0C 40 9E 7A 45 FD F6 
  1369)     15051.5  Rx         0708  8  22 0C 00 F3 0F 00 00 00 
  1370)     15057.2  Rx         0700  8  10 08 23 15 01 00 00 1D 
  1371)     15059.4  Rx         0708  8  30 00 00 00 00 00 00 00 
  1372)     15059.9  Rx         0700  8  21 80 80 00 00 00 00 00 
  1373)     15065.8  Rx         0708  8  10 81 63 64 0C 24 9E 3C 
  1374)     15066.0  Rx         0700  8  30 00 00 00 00 00 00 00 
  1375)     15069.0  Rx         0708  8  21 94 D3 F1 E1 0F 40 0C 
  1376)     15071.7  Rx         0708  8  22 03 DD 89 D3 CA 09 01 
  1377)     15075.0  Rx         0708  8  23 0D 01 0A 88 0B 80 FF 
  1378)     15078.0  Rx         0708  8  24 0A A1 40 06 FF 30 86 
  1379)     15081.0  Rx         0708  8  25 00 E6 F6 0C 00 C4 F1 
  1380)     15083.9  Rx         0708  8  26 5E 07 44 94 7F 00 80 
  1381)     15087.2  Rx         0708  8  27 07 21 00 BF FF 82 FA 
  1382)     15090.1  Rx         0708  8  28 00 0A 85 0D 01 F0 EC 
  1383)     15093.1  Rx         0708  8  29 F7 40 02 41 0A C4 F1 
  1384)     15096.2  Rx         0708  8  2A 5E 07 44 94 85 9F 49 
  1385)     15099.3  Rx         0708  8  2B 40 F3 09 E6 F5 40 06 
  1386)     15102.6  Rx         0708  8  2C 3F 00 86 07 E1 00 01 
  1387)     15105.4  Rx         0708  8  2D 32 80 FF 8A A0 BF FF 
  1388)     15108.8  Rx         0708  8  2E 72 FF 0A E0 00 EA 95 
  1389)     15111.6  Rx         0708  8  2F 25 1D F0 24 0E 3C 94 
  1390)     15114.8  Rx         0708  8  20 EC F7 40 02 C1 F1 68 
  1391)     15117.8  Rx         0708  8  21 08 E0 09 F2 15 00 0D 
  1392)     15121.0  Rx         0708  8  22 BC 09 E0 09 00 00 00 
  1393)     15123.7  Rx         0700  8  10 08 23 15 01 00 00 1E 
  1394)     15126.0  Rx         0708  8  30 00 00 00 00 00 00 00 
  1395)     15126.3  Rx         0700  8  21 00 80 00 00 00 00 00 
  1396)     15132.3  Rx         0708  8  10 81 63 BF 15 63 EF 01 
  1397)     15132.6  Rx         0700  8  30 00 00 00 00 00 00 00 
  1398)     15135.2  Rx         0708  8  21 00 03 38 02 0D 88 03 
  1399)     15138.2  Rx         0708  8  22 63 0F 05 00 69 08 1D 
  1400)     15141.5  Rx         0708  8  23 F0 C2 F2 63 0F 09 00 
  1401)     15144.3  Rx         0708  8  24 25 0F 45 40 C1 F1 00 
  1402)     15147.5  Rx         0708  8  25 35 80 FF F2 19 41 EA 
  1403)     15151.0  Rx         0708  8  26 85 0F 49 40 E1 E9 D6 
  1404)     15153.8  Rx         0708  8  27 DD 80 FF 72 A0 46 06 
  1405)     15156.8  Rx         0708  8  28 FF 00 80 07 21 00 BF 
  1406)     15159.7  Rx         0708  8  29 FF 0E FA 40 06 3F 00 
  1407)     15163.5  Rx         0708  8  2A 80 07 21 00 20 36 E8 
  1408)     15166.1  Rx         0708  8  2B 03 BF FF 9C F9 40 06 
  1409)     15169.1  Rx         0708  8  2C 3F 00 80 07 21 00 BF 
  1410)     15172.3  Rx         0708  8  2D FF BA F9 40 06 3F 00 
  1411)     15175.1  Rx         0708  8  2E 80 07 21 00 25 36 04 
  1412)     15178.1  Rx         0708  8  2F 40 00 3A 80 FF AA 19 
  1413)     15181.3  Rx         0708  8  20 40 06 3F 00 80 07 21 
  1414)     15184.8  Rx         0708  8  21 00 25 36 0C 40 00 3A 
  1415)     15187.4  Rx         0708  8  22 80 FF 98 19 00 00 00 
  1416)     15191.3  Rx         0700  8  10 08 23 15 01 00 00 1E 
  1417)     15194.1  Rx         0708  8  30 00 00 00 00 00 00 00 
  1418)     15194.4  Rx         0700  8  21 80 80 00 00 00 00 00 
  1419)     15200.8  Rx         0708  8  10 81 63 40 06 3F 00 80 
  1420)     15201.1  Rx         0700  8  30 00 00 00 00 00 00 00 
  1421)     15203.7  Rx         0708  8  21 07 21 00 00 32 80 FF 
  1422)     15206.8  Rx         0708  8  22 4C A0 85 05 80 07 21 
  1423)     15210.1  Rx         0708  8  23 00 BF FF F0 FF 40 06 
  1424)     15213.0  Rx         0708  8  24 3F 00 80 07 21 00 BF 
  1425)     15216.3  Rx         0708  8  25 FF E4 FF 40 06 3F 00 
  1426)     15219.1  Rx         0708  8  26 80 07 21 00 00 32 80 
  1427)     15222.4  Rx         0708  8  27 FF 28 A0 85 05 7F 00 
  1428)     15225.9  Rx         0708  8  28 80 07 21 00 BF FF A6 
  1429)     15228.4  Rx         0708  8  29 F9 40 06 3F 00 80 07 
  1430)     15232.0  Rx         0708  8  2A 21 00 BF FF AC F9 40 
  1431)     15234.6  Rx         0708  8  2B 06 3F 00 80 07 21 00 
  1432)     15237.7  Rx         0708  8  2C 00 32 80 FF E0 32 40 
  1433)     15240.8  Rx         0708  8  2D 06 3F 00 80 07 21 00 
  1434)     15243.9  Rx         0708  8  2E 00 32 80 FF 3C 32 40 
  1435)     15246.7  Rx         0708  8  2F 06 3F 00 80 07 21 00 
  1436)     15250.1  Rx         0708  8  20 01 32 80 FF C4 32 40 
  1437)     15252.9  Rx         0708  8  21 06 3F 00 80 07 21 00 
  1438)     15256.0  Rx         0708  8  22 01 32 80 FF 00 00 00 
  1439)     15257.9  Rx         0700  8  10 08 23 15 01 00 00 1F 
  1440)     15260.1  Rx         0708  8  30 00 00 00 00 00 00 00 
  1441)     15260.4  Rx         0700  8  21 00 80 00 00 00 00 00 
  1442)     15264.1  Rx         0708  8  10 81 63 20 32 40 06 3F 
  1443)     15264.4  Rx         0700  8  30 00 00 00 00 00 00 00 
  1444)     15267.4  Rx         0708  8  21 00 80 07 21 00 02 32 
  1445)     15270.3  Rx         0708  8  22 80 FF A8 32 40 06 3F 
  1446)     15274.1  Rx         0708  8  23 00 80 07 21 00 02 32 
  1447)     15277.5  Rx         0708  8  24 80 FF 04 32 40 06 3F 
  1448)     15281.3  Rx         0708  8  25 00 80 07 21 00 03 32 
  1449)     15283.7  Rx         0708  8  26 80 FF 8C 32 40 06 3F 
  1450)     15287.0  Rx         0708  8  27 00 80 07 21 00 03 32 
  1451)     15290.4  Rx         0708  8  28 80 FF E8 31 40 06 3F 
  1452)     15293.1  Rx         0708  8  29 00 80 07 21 00 00 32 
  1453)     15296.0  Rx         0708  8  2A 80 FF 92 9F 85 05 80 
  1454)     15299.0  Rx         0708  8  2B 07 21 00 00 32 80 FF 
  1455)     15302.0  Rx         0708  8  2C 86 9F 85 05 7F 00 80 
  1456)     15305.1  Rx         0708  8  2D 07 61 00 25 EF 85 40 
  1457)     15308.2  Rx         0708  8  2E 1D 30 BF FF 58 FC E0 
  1458)     15311.6  Rx         0708  8  2F 51 1D 30 E2 3F 00 00 
  1459)     15314.4  Rx         0708  8  20 BF FF 64 FC 40 06 7F 
  1460)     15317.4  Rx         0708  8  21 00 7F 00 80 07 61 00 
  1461)     15321.5  Rx         0708  8  22 BF FF D4 FD 00 00 00 
  1462)     15323.7  Rx         0700  8  10 08 23 15 01 00 00 1F 
  1463)     15325.7  Rx         0708  8  30 00 00 00 00 00 00 00 
  1464)     15325.9  Rx         0700  8  21 80 80 00 00 00 00 00 
  1465)     15328.7  Rx         0708  8  10 81 63 0A E8 B5 05 BF 
  1466)     15329.3  Rx         0700  8  30 00 00 00 00 00 00 00 
  1467)     15332.0  Rx         0708  8  21 FF CC FD 25 0F 4D 40 
  1468)     15334.8  Rx         0708  8  22 BD 51 E1 51 A1 FD BF 
  1469)     15337.9  Rx         0708  8  23 FF C6 FF 44 07 2C 94 
  1470)     15341.2  Rx         0708  8  24 40 06 7F 00 80 07 21 
  1471)     15344.3  Rx         0708  8  25 00 85 9F 51 40 24 F6 
  1472)     15347.1  Rx         0708  8  26 2C 94 60 08 41 0A 80 
  1473)     15350.2  Rx         0708  8  27 0B 81 00 F3 09 D1 05 
  1474)     15353.2  Rx         0708  8  28 BF FF A2 FF 44 07 2C 
  1475)     15356.8  Rx         0708  8  29 94 40 06 3F 00 80 07 
  1476)     15359.4  Rx         0708  8  2A 21 00 00 32 80 FF 0E 
  1477)     15363.0  Rx         0708  8  2B 9F 85 05 7F 00 84 07 
  1478)     15365.9  Rx         0708  8  2C 21 00 C6 00 07 F0 00 
  1479)     15368.7  Rx         0708  8  2D 0D 03 38 63 0F 01 00 
  1480)     15371.7  Rx         0708  8  2E 72 08 63 0F 04 00 80 
  1481)     15375.3  Rx         0708  8  2F FF 18 3E 44 06 3F 00 
  1482)     15377.8  Rx         0708  8  20 80 07 21 00 C6 00 80 
  1483)     15381.2  Rx         0708  8  21 FF B8 3D 00 52 40 06 
  1484)     15384.2  Rx         0708  8  22 3F 00 84 07 00 00 00 
  1485)     15387.1  Rx         0700  8  10 08 23 15 01 00 00 20 
